(1694255904.933946) can1 611#5000500050005000
(1694255904.937617) can1 612#0605056050005000
(1694255904.940968) can1 613#5000500004750635
(1694255905.034706) can1 611#5000500050005000
(1694255905.037379) can1 612#0610068550005000
(1694255905.040871) can1 613#5000500004650290
(1694255905.140780) can1 611#5000500050005000
(1694255905.141013) can1 612#0570047550005000
(1694255905.141255) can1 613#5000500009400300
(1694255905.233805) can1 611#5000500050005000
(1694255905.237247) can1 612#0575071550005000
(1694255905.240888) can1 613#5000500009250290
(1694255905.334687) can1 611#5000500050005000
(1694255905.337329) can1 612#0585049550005000
(1694255905.340709) can1 613#5000500009400625
(1694255905.433960) can1 611#5000500050005000
(1694255905.446151) can1 612#0635079550005000
(1694255905.446400) can1 613#5000500004900290
(1694255905.533764) can1 611#5000500050005000
(1694255905.537300) can1 612#0610090050005000
(1694255905.540731) can1 613#5000500004600630
(1694255905.634198) can1 611#5000500050005000
(1694255905.646025) can1 612#0600071050005000
(1694255905.646269) can1 613#5000500004700985
(1694255905.733625) can1 611#5000500050005000
(1694255905.737095) can1 612#0615070050005000
(1694255905.740580) can1 613#1435500004700800
(1694255905.835528) can1 611#5000500050005000
(1694255905.837087) can1 612#0600071550005000
(1694255905.841142) can1 613#1435500011650705
(1694255905.933548) can1 611#5000500050005000
(1694255905.937023) can1 612#0590089050005000
(1694255905.940580) can1 613#1440069511350290
(1694255906.036179) can1 611#5000500050005000
(1694255906.037811) can1 612#0695080050005000
(1694255906.041348) can1 613#5000500004750290
(1694255906.142285) can1 611#5000500050005000
(1694255906.142529) can1 612#0585053550005000
(1694255906.142757) can1 613#5000500007250770
(1694255906.234303) can1 611#5000500050005000
(1694255906.237714) can1 612#0610073050005000
(1694255906.241288) can1 613#5000500004801065
(1694255906.336465) can1 611#5000500050005000
(1694255906.337836) can1 612#0595089050005000
(1694255906.342063) can1 613#5000500007350780
(1694255906.434220) can1 611#5000500050005000
(1694255906.437833) can1 612#0615081050005000
(1694255906.447701) can1 613#5000500004850615
(1694255906.535144) can1 611#5000500050005000
(1694255906.537790) can1 612#0595089550005000
(1694255906.541082) can1 613#5000500050000700
(1694255906.634075) can1 611#5000500050005000
(1694255906.640112) can1 612#0605080050005000
(1694255906.644442) can1 613#5000500004700705
(1694255906.734922) can1 611#5000500050005000
(1694255906.738434) can1 612#5000052050005000
(1694255906.741895) can1 613#5000500004850900
(1694255906.836891) can1 611#5000500050005000
(1694255906.838445) can1 612#5000073050005000
(1694255906.842544) can1 613#5000500005950290
(1694255906.938485) can1 612#5000080050005000
(1694255906.949057) can1 613#5000500006050915
(1694255907.037698) can1 611#5000500050005000
(1694255907.039170) can1 612#5000054050005000
(1694255907.042617) can1 613#5000500008250690
(1694255907.143991) can1 611#5000500050005000
(1694255907.144223) can1 612#5000079050005000
(1694255907.144481) can1 613#5000500006100600
(1694255907.235543) can1 611#5000500050005000
(1694255907.238979) can1 612#5000053050005000
(1694255907.242528) can1 613#5000500005850710
(1694255907.338024) can1 611#5000500050005000
(1694255907.339054) can1 612#5000052550005000
(1694255907.343655) can1 613#5000500050000905
(1694255907.435516) can1 611#5000500050005000
(1694255907.439220) can1 612#5000060050005000
(1694255907.449513) can1 613#5000500006500840
(1694255907.536385) can1 611#5000500050005000
(1694255907.539057) can1 612#5000052550005000
(1694255907.542344) can1 613#5000500004900910
(1694255907.635550) can1 611#5000500050005000
(1694255907.641250) can1 612#5000058550005000
(1694255907.645162) can1 613#5000500050000290
(1694255907.735304) can1 611#5000500050005000
(1694255907.738757) can1 612#5000058050005000
(1694255907.742323) can1 613#5000500006150695
(1694255907.838296) can1 611#5000500050005000
(1694255907.838802) can1 612#5000071550005000
(1694255907.843975) can1 613#5000500006000925
(1694255907.935313) can1 611#5000500050005000
(1694255907.950840) can1 613#5000500005200290
(1694255908.035327) can1 611#5000500050005000
(1694255908.039400) can1 612#5000059050005000
(1694255908.042188) can1 613#5000500009750290
(1694255908.135308) can1 611#5000500050005000
(1694255908.145398) can1 612#5000054550005000
(1694255908.145680) can1 613#5000500006550695
(1694255908.235099) can1 611#5000500050005000
(1694255908.238691) can1 612#5000059550005000
(1694255908.242128) can1 613#5000500050000295
(1694255908.339369) can1 611#5000500050005000
(1694255908.339653) can1 612#0805082550005000
(1694255908.342221) can1 613#5000500006100295
(1694255908.435033) can1 611#5000500050005000
(1694255908.438802) can1 612#5000050550005000
(1694255908.450954) can1 613#5000500006250945
(1694255908.538632) can1 611#5000500050005000
(1694255908.538882) can1 612#5000051550005000
(1694255908.544285) can1 613#5000500006100935
(1694255908.634956) can1 611#5000500050005000
(1694255908.638386) can1 612#0800070550005000
(1694255908.647535) can1 613#5000500006050295
(1694255908.734866) can1 611#5000500050005000
(1694255908.738411) can1 612#1250071050005000
(1694255908.741806) can1 613#5000500006050955
(1694255908.839814) can1 611#5000500050005000
(1694255908.840013) can1 612#5000071050005000
(1694255908.841844) can1 613#5000500006000930
(1694255908.934783) can1 611#5000500050005000
(1694255908.938300) can1 612#5000051550005000
(1694255908.941753) can1 613#5000500006300955
(1694255909.035586) can1 611#5000500050005000
(1694255909.038267) can1 612#5000044050005000
(1694255909.041700) can1 613#5000500006050935
(1694255909.134833) can1 611#5000500050005000
(1694255909.146919) can1 612#5000051050005000
(1694255909.147218) can1 613#5000500006050295
(1694255909.235537) can1 611#5000500050005000
(1694255909.238198) can1 612#5000062550005000
(1694255909.241697) can1 613#5000500008250290
(1694255909.340608) can1 611#5000500013055000
(1694255909.340852) can1 612#5000061050005000
(1694255909.341673) can1 613#5000500008350605
(1694255909.434565) can1 611#5000500050005000
(1694255909.438048) can1 612#5000052550005000
(1694255909.441596) can1 613#5000500006200865
(1694255909.539560) can1 611#5000500050005000
(1694255909.540240) can1 612#5000052050005000
(1694255909.541695) can1 613#5000500006150800
(1694255909.634565) can1 611#5000500050005000
(1694255909.638082) can1 612#5000052050005000
(1694255909.649877) can1 613#5000500006100695
(1694255909.735279) can1 611#5000500050005000
(1694255909.738022) can1 612#5000051550005000
(1694255909.741455) can1 613#5000500006100290
(1694255909.841548) can1 611#5000500050005000
(1694255909.841817) can1 612#0790070550005000
(1694255909.842047) can1 613#5000500050000795
(1694255909.934352) can1 611#5000500050005000
(1694255909.937889) can1 612#5000051050005000
(1694255909.941512) can1 613#5000500005850830
(1694255910.037066) can1 611#5000500050005000
(1694255910.037867) can1 612#5000050550005000
(1694255910.042817) can1 613#5000500050000290
(1694255910.134311) can1 611#5000500050005000
(1694255910.137824) can1 612#5000071050005000
(1694255910.148652) can1 613#5000500050000615
(1694255910.235572) can1 611#5000500050005000
(1694255910.237870) can1 612#5000049550005000
(1694255910.241318) can1 613#5000500050000625
(1694255910.342493) can1 611#5000500050005000
(1694255910.342725) can1 612#5000069550005000
(1694255910.342977) can1 613#5000500050000610
(1694255910.435039) can1 611#5000500050005000
(1694255910.437787) can1 612#1255050050005000
(1694255910.441250) can1 613#5000500005950310
(1694255910.534399) can1 611#5000500050005000
(1694255910.537906) can1 612#1090069550005000
(1694255910.541282) can1 613#5000500006250290
(1694255910.634203) can1 611#5000500050005000
(1694255910.637644) can1 612#5000050550005000
(1694255910.641293) can1 613#5000500006000310
(1694255910.734172) can1 611#5000500050005000
(1694255910.737669) can1 612#5000063550005000
(1694255910.741206) can1 613#5000500050000290
(1694255910.834180) can1 611#5000500050005000
(1694255910.837739) can1 612#5000044550005000
(1694255910.842993) can1 613#5000500006000695
(1694255910.934073) can1 611#5000500050005000
(1694255910.937600) can1 612#5000051550005000
(1694255910.941078) can1 613#5000500050000900
(1694255911.038532) can1 611#5000500050005000
(1694255911.038740) can1 612#5000050550005000
(1694255911.044219) can1 613#5000500050000845
(1694255911.135110) can1 611#5000500050005000
(1694255911.138512) can1 612#5000053550005000
(1694255911.149874) can1 613#5000500006050890
(1694255911.235021) can1 611#5000500050005000
(1694255911.238512) can1 612#0780051050005000
(1694255911.241997) can1 613#5000500050000290
(1694255911.344005) can1 611#5000500050005000
(1694255911.344207) can1 612#1085064050005000
(1694255911.344448) can1 613#5000500009650590
(1694255911.436609) can1 611#5000500050005000
(1694255911.438468) can1 612#5000051550005000
(1694255911.442000) can1 613#5000500050000295
(1694255911.535032) can1 611#5000500050005000
(1694255911.538496) can1 612#5000051550005000
(1694255911.541739) can1 613#5000500050000900
(1694255911.634883) can1 611#5000500050005000
(1694255911.638341) can1 612#0790060050005000
(1694255911.641837) can1 613#5000500005950290
(1694255911.735028) can1 611#5000500050005000
(1694255911.738710) can1 612#5000081050005000
(1694255911.741790) can1 613#5000500009650905
(1694255911.834904) can1 611#5000500050005000
(1694255911.844805) can1 612#5000052550005000
(1694255911.845071) can1 613#5000500050000820
(1694255911.934731) can1 611#5000500050005000
(1694255911.938180) can1 612#0795059050005000
(1694255911.941736) can1 613#5000500006000290
(1694255912.040195) can1 611#5000500050005000
(1694255912.040444) can1 612#0790052050005000
(1694255912.041683) can1 613#5000500050000310
(1694255912.134685) can1 611#5000500050005000
(1694255912.138136) can1 612#1245061550005000
(1694255912.141726) can1 613#5000500009600585
(1694255912.234647) can1 611#5000500050005000
(1694255912.239782) can1 612#5000043550005000
(1694255912.241542) can1 613#5000500050000880
(1694255912.334702) can1 611#5000500050005000
(1694255912.345784) can1 612#5000059550005000
(1694255912.346098) can1 613#5000500006050295
(1694255912.434735) can1 611#5000500050005000
(1694255912.438246) can1 612#5000089550005000
(1694255912.441495) can1 613#5000500006005000
(1694255912.541580) can1 611#5000500050005000
(1694255912.542043) can1 612#0580063550005000
(1694255912.542486) can1 613#5000500050000815
(1694255912.634521) can1 611#5000500050005000
(1694255912.637961) can1 612#0920070550005000
(1694255912.641469) can1 613#5000500050000580
(1694255912.734975) can1 611#5000500050005000
(1694255912.739885) can1 612#5000080550005000
(1694255912.741739) can1 613#5000500005700550
(1694255912.834971) can1 611#5000500050005000
(1694255912.847028) can1 612#5000067550005000
(1694255912.847271) can1 613#5000500009850445
(1694255912.935693) can1 611#5000500050005000
(1694255912.938200) can1 612#5000060550005000
(1694255912.941688) can1 613#5000500002901025
(1694255913.041625) can1 611#5000500050005000
(1694255913.041855) can1 612#5000054550005000
(1694255913.042088) can1 613#5000500050005000
(1694255913.134707) can1 611#5000500050005000
(1694255913.138302) can1 612#0600051050005000
(1694255913.142039) can1 613#5000500005855000
(1694255913.235575) can1 611#5000500050005000
(1694255913.238385) can1 612#0565096550005000
(1694255913.241766) can1 613#5000500050001075
(1694255913.334839) can1 611#5000500050005000
(1694255913.346833) can1 612#5000029550005000
(1694255913.347064) can1 613#5000500050001095
(1694255913.434829) can1 611#5000500050005000
(1694255913.439607) can1 612#0930500050005000
(1694255913.441701) can1 613#5000500050000515
(1694255913.534837) can1 611#5000500050005000
(1694255913.538597) can1 612#0880105050005000
(1694255913.546835) can1 613#5000500050000350
(1694255913.634653) can1 611#5000500050005000
(1694255913.638180) can1 612#5000079050005000
(1694255913.641620) can1 613#5000500050000345
(1694255913.735825) can1 611#5000500050005000
(1694255913.738035) can1 612#5000058550005000
(1694255913.741580) can1 613#5000500007050295
(1694255913.834585) can1 611#5000500050005000
(1694255913.838244) can1 612#1085076550005000
(1694255913.848575) can1 613#5000500050000385
(1694255913.934554) can1 611#5000500050005000
(1694255913.937988) can1 612#5000054550005000
(1694255913.941511) can1 613#5000090050000390
(1694255914.043124) can1 611#5000500050005000
(1694255914.043376) can1 612#5000108050005000
(1694255914.043622) can1 613#5000500009500355
(1694255914.134496) can1 611#5000500050005000
(1694255914.137962) can1 612#0690059550005000
(1694255914.141435) can1 613#5000500005850495
(1694255914.237120) can1 611#5000500050005000
(1694255914.239998) can1 612#5000050550005000
(1694255914.243366) can1 613#5000500050000375
(1694255914.336353) can1 611#5000500050005000
(1694255914.340382) can1 612#0670049050005000
(1694255914.348840) can1 613#5000500050000840
(1694255914.436616) can1 611#5000500050005000
(1694255914.441185) can1 612#5000043550005000
(1694255914.443197) can1 613#5000500050000655
(1694255914.536313) can1 611#5000500050005000
(1694255914.546910) can1 612#5000055550005000
(1694255914.547143) can1 613#5000500006050460
(1694255914.636221) can1 611#5000500050005000
(1694255914.639696) can1 612#5000047050005000
(1694255914.643246) can1 613#5000500050000420
(1694255914.737680) can1 611#5000500050005000
(1694255914.739759) can1 612#5000056550005000
(1694255914.743439) can1 613#5000500011550655
(1694255914.836215) can1 611#5000500050005000
(1694255914.842250) can1 612#0690055050005000
(1694255914.843212) can1 613#5000500050000290
(1694255914.936294) can1 611#5000500050005000
(1694255914.939584) can1 612#5000099550005000
(1694255914.943061) can1 613#5000500010850370
(1694255915.038438) can1 611#5000500050005000
(1694255915.044724) can1 612#5000500050005000
(1694255915.044951) can1 613#5000500050000320
(1694255915.136283) can1 611#5000500050005000
(1694255915.139511) can1 612#5000068050005000
(1694255915.142975) can1 613#5000500009150300
(1694255915.238647) can1 611#5000500050005000
(1694255915.239620) can1 612#5000061050005000
(1694255915.244261) can1 613#5000500050000515
(1694255915.335919) can1 611#5000500050005000
(1694255915.339415) can1 612#0985054550005000
(1694255915.350042) can1 613#5000500006800350
(1694255915.437872) can1 611#5000500050005000
(1694255915.439486) can1 612#0980056050005000
(1694255915.443537) can1 613#5000500050000290
(1694255915.535915) can1 611#5000500050005000
(1694255915.543759) can1 612#0655082050005000
(1694255915.548598) can1 613#5000500050000290
(1694255915.635761) can1 611#5000500050005000
(1694255915.639302) can1 612#5000067550005000
(1694255915.642810) can1 613#5000500050000550
(1694255915.739373) can1 611#5000500050005000
(1694255915.739609) can1 612#5000113550005000
(1694255915.742692) can1 613#5000500050000830
(1694255915.835695) can1 611#5000500050005000
(1694255915.839293) can1 612#0855066550005000
(1694255915.842668) can1 613#5000500050000720
(1694255915.935678) can1 611#5000500050005000
(1694255915.940361) can1 612#0870098550005000
(1694255915.942634) can1 613#5000500005900290
(1694255916.035910) can1 611#5000500050005000
(1694255916.046262) can1 612#0625069550005000
(1694255916.046598) can1 613#5000500050000320
(1694255916.135607) can1 611#5000500050005000
(1694255916.143365) can1 613#5000500050000605
(1694255916.240012) can1 611#5000500050005000
(1694255916.240338) can1 612#5000500050005000
(1694255916.242615) can1 613#5000500050000310
(1694255916.335569) can1 611#5000500050005000
(1694255916.338988) can1 612#5000113550005000
(1694255916.343656) can1 613#5000500009950320
(1694255916.435640) can1 611#5000500050005000
(1694255916.439067) can1 612#0890500050005000
(1694255916.442642) can1 613#5000500009250625
(1694255916.535478) can1 611#5000500050005000
(1694255916.539067) can1 612#5000500050005000
(1694255916.550138) can1 613#5000500050000295
(1694255916.636725) can1 611#5000500050005000
(1694255916.640100) can1 612#5000062550005000
(1694255916.643678) can1 613#5000500050000575
(1694255916.741278) can1 611#5000500050005000
(1694255916.741509) can1 612#5000094550005000
(1694255916.743726) can1 613#5000500050000360
(1694255916.836739) can1 611#5000500050005000
(1694255916.840260) can1 612#5000032550005000
(1694255916.852369) can1 613#5000500050000315
(1694255916.936677) can1 611#5000500050005000
(1694255916.941778) can1 612#0755053550005000
(1694255916.943554) can1 613#5000500005700315
(1694255917.036718) can1 611#5000500050005000
(1694255917.047792) can1 612#0900029550005000
(1694255917.048011) can1 613#5000500050000300
(1694255917.136480) can1 611#5000500050005000
(1694255917.140013) can1 612#5000059050005000
(1694255917.143517) can1 613#5000500050000325
(1694255917.241713) can1 611#5000500050005000
(1694255917.241888) can1 612#0910045550005000
(1694255917.243474) can1 613#5000500050000290
(1694255917.336408) can1 611#5000500050005000
(1694255917.339918) can1 612#0735042050005000
(1694255917.343598) can1 613#5000103550000295
(1694255917.436350) can1 611#5000500050005000
(1694255917.439869) can1 612#5000046550005000
(1694255917.443444) can1 613#5000500050000325
(1694255917.537211) can1 611#5000500050005000
(1694255917.540804) can1 612#0580038550005000
(1694255917.544538) can1 613#5000500010550290
(1694255917.637112) can1 611#5000500050005000
(1694255917.640637) can1 612#5000050050005000
(1694255917.644118) can1 613#5000500050000305
(1694255917.743135) can1 611#5000500050005000
(1694255917.743391) can1 612#0890029050005000
(1694255917.744209) can1 613#5000500050000300
(1694255917.837080) can1 611#5000500050005000
(1694255917.840565) can1 612#0970076550005000
(1694255917.844014) can1 613#5000500050000760
(1694255917.937873) can1 611#5000500050005000
(1694255917.940553) can1 612#0915072550005000
(1694255917.943953) can1 613#5000500050000370
(1694255918.037165) can1 611#5000500050005000
(1694255918.049298) can1 612#0785082050005000
(1694255918.049547) can1 613#5000500050000310
(1694255918.137492) can1 611#5000500050005000
(1694255918.140488) can1 612#5000031550005000
(1694255918.143857) can1 613#5000500050000290
(1694255918.243325) can1 611#5000500050005000
(1694255918.243556) can1 612#5000029050005000
(1694255918.243864) can1 613#5000500050000325
(1694255918.336789) can1 611#5000500050005000
(1694255918.340251) can1 612#5000065550005000
(1694255918.343914) can1 613#5000095050000760
(1694255918.441603) can1 611#5000500050005000
(1694255918.441861) can1 612#5000070050005000
(1694255918.443745) can1 613#5000500050000330
(1694255918.536766) can1 611#5000500050005000
(1694255918.540155) can1 612#5000033550005000
(1694255918.543875) can1 613#5000500050000750
(1694255918.637600) can1 611#5000500050005000
(1694255918.640192) can1 612#5000033050005000
(1694255918.643677) can1 613#5000500050000650
(1694255918.736923) can1 611#5000500050005000
(1694255918.740302) can1 612#5000029050005000
(1694255918.743772) can1 613#5000500050000390
(1694255918.836604) can1 611#5000500050005000
(1694255918.840114) can1 612#5000034050005000
(1694255918.843690) can1 613#5000500008200325
(1694255918.939732) can1 611#5000500050005000
(1694255918.940225) can1 612#5000052050005000
(1694255918.945385) can1 613#5000500050000980
(1694255919.036565) can1 611#5000500050005000
(1694255919.040233) can1 612#5000033550005000
(1694255919.043523) can1 613#5000500050000290
(1694255919.138857) can1 611#5000500050005000
(1694255919.139950) can1 612#0655029050005000
(1694255919.143492) can1 613#5000500050000300
(1694255919.245244) can1 611#5000500050005000
(1694255919.245498) can1 612#5000188050005000
(1694255919.245754) can1 613#5000500008950325
(1694255919.338356) can1 611#5000500050005000
(1694255919.339900) can1 612#1090068050005000
(1694255919.343403) can1 613#5000500050000290
(1694255919.443575) can1 611#5000500050005000
(1694255919.443798) can1 612#5000083550005000
(1694255919.444014) can1 613#5000100050000290
(1694255919.536367) can1 611#5000500050005000
(1694255919.539824) can1 612#5000500050005000
(1694255919.543425) can1 613#5000500006250320
(1694255919.636583) can1 611#5000500050005000
(1694255919.639856) can1 612#5000500050005000
(1694255919.643364) can1 613#5000500050000305
(1694255919.737497) can1 611#5000500050005000
(1694255919.743499) can1 612#5000058050005000
(1694255919.743757) can1 613#5000500050000290
(1694255919.838243) can1 611#5000500050005000
(1694255919.841732) can1 612#5000084550005000
(1694255919.845376) can1 613#5000500050000325
(1694255919.941535) can1 611#5000500050005000
(1694255919.941765) can1 612#5000087050005000
(1694255919.947206) can1 613#5000500005450325
(1694255920.038170) can1 611#5000500050005000
(1694255920.041860) can1 612#5000063550005000
(1694255920.045325) can1 613#5000500050000290
(1694255920.140406) can1 611#5000500050005000
(1694255920.141604) can1 612#5000089550005000
(1694255920.145145) can1 613#5000500050000300
(1694255920.246342) can1 611#5000500050005000
(1694255920.246572) can1 612#0605072550005000
(1694255920.246829) can1 613#5000500050000325
(1694255920.339908) can1 611#5000500050005000
(1694255920.341521) can1 612#1065500050005000
(1694255920.345033) can1 613#5000500050000325
(1694255920.444524) can1 611#5000500050005000
(1694255920.444780) can1 612#0850031050005000
(1694255920.445010) can1 613#5000500050004035
(1694255920.538098) can1 611#5000500050005000
(1694255920.541486) can1 612#5000500050005000
(1694255920.545033) can1 613#5000500050000330
(1694255920.637958) can1 611#5000500050005000
(1694255920.641682) can1 612#0760031550005000
(1694255920.644890) can1 613#5000500050000935
(1694255920.739186) can1 611#5000500050005000
(1694255920.746941) can1 612#5000114050005000
(1694255920.747199) can1 613#5000500005050805
(1694255920.837852) can1 611#5000500050005000
(1694255920.841342) can1 612#0855030050005000
(1694255920.844848) can1 613#5000500050000625
(1694255920.942451) can1 611#5000500050005000
(1694255920.942682) can1 612#0845060050005000
(1694255920.944894) can1 613#5000500004950840
(1694255921.037796) can1 611#5000500050005000
(1694255921.044990) can1 613#5000500050005000
(1694255921.137815) can1 611#5000500050005000
(1694255921.142043) can1 612#5000088550005000
(1694255921.144698) can1 613#5000500005100310
(1694255921.237867) can1 611#5000500050005000
(1694255921.248466) can1 612#0610042050005000
(1694255921.248697) can1 613#5000500007850340
(1694255921.337918) can1 611#5000500050005000
(1694255921.342349) can1 612#0780033550005000
(1694255921.344743) can1 613#5000102505600780
(1694255921.437809) can1 611#5000500050005000
(1694255921.447417) can1 612#5000051050005000
(1694255921.447642) can1 613#5000500005650295
(1694255921.537682) can1 611#5000500050005000
(1694255921.541156) can1 612#5000065550005000
(1694255921.544652) can1 613#5000500050000300
(1694255921.637704) can1 611#5000500050005000
(1694255921.642882) can1 612#0590056050005000
(1694255921.644539) can1 613#5000500005000290
(1694255921.737667) can1 611#5000500050005000
(1694255921.748512) can1 612#0670182550005000
(1694255921.748770) can1 613#5000500050000300
(1694255921.838418) can1 611#5000500050005000
(1694255921.841013) can1 612#5000029550005000
(1694255921.844525) can1 613#5000500009250310
(1694255921.943984) can1 611#5000500050005000
(1694255921.944217) can1 612#0595032050005000
(1694255921.944704) can1 613#5000500004650315
(1694255922.039004) can1 611#5000500050005000
(1694255922.042471) can1 612#0630030550005000
(1694255922.045966) can1 613#5000500005750315
(1694255922.139063) can1 611#5000500050005000
(1694255922.143918) can1 612#0785095550005000
(1694255922.145939) can1 613#5000500005550290
(1694255922.239044) can1 611#5000500050005000
(1694255922.249960) can1 612#5000061050005000
(1694255922.250213) can1 613#5000500050000340
(1694255922.339054) can1 611#5000500050005000
(1694255922.342407) can1 612#5000060550005000
(1694255922.345850) can1 613#5000500050000315
(1694255922.448209) can1 611#5000500050005000
(1694255922.448405) can1 612#5000055050005000
(1694255922.448642) can1 613#5000500006201005
(1694255922.540982) can1 611#5000500050005000
(1694255922.544432) can1 612#5000029050005000
(1694255922.547991) can1 613#5000500006350670
(1694255922.641019) can1 611#5000500050005000
(1694255922.645229) can1 612#0670047050005000
(1694255922.647913) can1 613#5000500005700855
(1694255922.749909) can1 611#5000500050005000
(1694255922.750195) can1 612#0755029050005000
(1694255922.750398) can1 613#5000500006200850
(1694255922.840892) can1 611#5000500050005000
(1694255922.844359) can1 612#1080053550005000
(1694255922.847874) can1 613#5000500006200730
(1694255922.946194) can1 611#5000500050005000
(1694255922.946427) can1 612#5000034550005000
(1694255922.947886) can1 613#5000500006101055
(1694255923.041838) can1 611#5000500050005000
(1694255923.045687) can1 612#1055031550005000
(1694255923.048960) can1 613#5000500006150735
(1694255923.141810) can1 611#5000500050005000
(1694255923.145476) can1 612#5000030550005000
(1694255923.148781) can1 613#5000500006051065
(1694255923.241973) can1 611#5000500050005000
(1694255923.248824) can1 612#5000060550005000
(1694255923.252104) can1 613#5000500006200850
(1694255923.341757) can1 611#5000500050005000
(1694255923.345205) can1 612#0755047550005000
(1694255923.348737) can1 613#5000500005950305
(1694255923.442766) can1 611#5000500050005000
(1694255923.449915) can1 612#0735054050005000
(1694255923.450170) can1 613#5000500050005000
(1694255923.541694) can1 611#5000500050005000
(1694255923.545136) can1 612#5000052550005000
(1694255923.548665) can1 613#5000500007555000
(1694255923.641636) can1 611#5000500050005000
(1694255923.646698) can1 612#5000058550005000
(1694255923.648617) can1 613#5000500050001370
(1694255923.741712) can1 611#5000500050005000
(1694255923.751580) can1 612#0940500050005000
(1694255923.751810) can1 613#5000500050000295
(1694255923.841547) can1 611#5000500050005000
(1694255923.845043) can1 612#0685500050005000
(1694255923.848601) can1 613#5000500050000305
(1694255923.947222) can1 611#5000500050005000
(1694255923.947455) can1 612#5000067550005000
(1694255923.948560) can1 613#5000500050000850
(1694255924.041482) can1 611#5000500050005000
(1694255924.044972) can1 612#0665500050005000
(1694255924.048485) can1 613#5000500050005000
(1694255924.141456) can1 611#5000500050005000
(1694255924.146651) can1 612#5000047050005000
(1694255924.148445) can1 613#5000500050005000
(1694255924.241587) can1 611#5000500050005000
(1694255924.252711) can1 612#5000053050005000
(1694255924.252942) can1 613#5000500005250485
(1694255924.341454) can1 611#5000500050005000
(1694255924.344891) can1 612#1140073050005000
(1694255924.348402) can1 613#5000500050000965
(1694255924.441417) can1 611#5000500050005000
(1694255924.451280) can1 612#5000051050005000
(1694255924.451613) can1 613#5000500010405000
(1694255924.541325) can1 611#5000500050005000
(1694255924.544805) can1 612#5000052550005000
(1694255924.548283) can1 613#5000500008000765
(1694255924.642295) can1 611#5000500050005000
(1694255924.647737) can1 612#1015055550005000
(1694255924.649138) can1 613#5000500050000715
(1694255924.742246) can1 611#5000500050005000
(1694255924.753085) can1 612#5000082550005000
(1694255924.753316) can1 613#5000500050000610
(1694255924.842381) can1 611#5000500050005000
(1694255924.845664) can1 612#5000048050005000
(1694255924.849155) can1 613#5000500009200715
(1694255924.948674) can1 611#5000500050005000
(1694255924.948855) can1 612#5000127550005000
(1694255924.949087) can1 613#5000500050000705
(1694255925.042069) can1 611#5000500050005000
(1694255925.045523) can1 612#5000050550005000
(1694255925.049143) can1 613#5000500050000660
(1694255925.143033) can1 611#5000500050005000
(1694255925.145460) can1 612#5000081550005000
(1694255925.148972) can1 613#5000500002900680
(1694255925.242169) can1 611#5000500050005000
(1694255925.254393) can1 612#5000054550005000
(1694255925.254628) can1 613#5000500003050695
(1694255925.342066) can1 611#5000500050005000
(1694255925.345597) can1 612#5000065050005000
(1694255925.348896) can1 613#5000500002900410
(1694255925.442601) can1 611#5000500050005000
(1694255925.447760) can1 612#5000061050005000
(1694255925.453200) can1 613#5000500003255000
(1694255925.542391) can1 611#5000500050005000
(1694255925.545858) can1 612#0675073050005000
(1694255925.549382) can1 613#5000500005955000
(1694255925.642342) can1 611#5000500050005000
(1694255925.645987) can1 612#5000081007455000
(1694255925.649341) can1 613#5000500050000540
(1694255925.742363) can1 611#5000500050005000
(1694255925.754641) can1 612#5000049550005000
(1694255925.754874) can1 613#5000500008450560
(1694255925.844297) can1 611#5000500050005000
(1694255925.845791) can1 612#5000500050005000
(1694255925.849299) can1 613#5000500009855000
(1694255925.942358) can1 611#5000500050005000
(1694255925.945822) can1 612#0655500050005000
(1694255925.951217) can1 613#5000500050005000
(1694255926.042210) can1 611#5000500050005000
(1694255926.045787) can1 612#1040090050005000
(1694255926.049507) can1 613#5000500050000930
(1694255926.144665) can1 611#5000500050005000
(1694255926.145697) can1 612#5000142550005000
(1694255926.150358) can1 613#5000500050000440
(1694255926.242244) can1 611#5000500050005000
(1694255926.245943) can1 612#0675072050005000
(1694255926.255839) can1 613#5000500006704385
(1694255926.343012) can1 611#5000500050005000
(1694255926.345848) can1 612#0795055050005000
(1694255926.349204) can1 613#5000500050005000
(1694255926.442140) can1 611#5000500050005000
(1694255926.446397) can1 612#5000059050005000
(1694255926.454866) can1 613#5000500011105000
(1694255926.543962) can1 611#5000500050005000
(1694255926.547464) can1 612#0810058050005000
(1694255926.550988) can1 613#5000500050005000
(1694255926.648431) can1 611#5000500050005000
(1694255926.648675) can1 612#0935063050005000
(1694255926.651041) can1 613#5000500050001245
(1694255926.744015) can1 611#5000500050005000
(1694255926.748296) can1 612#5000057050005000
(1694255926.756349) can1 613#5000500050000535
(1694255926.845478) can1 611#5000500050005000
(1694255926.847340) can1 612#0955052050005000
(1694255926.850854) can1 613#5000500050000590
(1694255926.943958) can1 611#5000500050005000
(1694255926.947360) can1 612#0695058050005000
(1694255926.950841) can1 613#5000500050000570
(1694255927.043770) can1 611#5000500050005000
(1694255927.047241) can1 612#0905081050005000
(1694255927.050941) can1 613#5000500005700795
(1694255927.146156) can1 611#5000500050005000
(1694255927.147384) can1 612#5000099050005000
(1694255927.151828) can1 613#5000500050004045
(1694255927.243746) can1 611#5000500050005000
(1694255927.247271) can1 612#0945500050005000
(1694255927.257604) can1 613#5000500050005000
(1694255927.344526) can1 611#5000500050005000
(1694255927.347353) can1 612#0875046550005000
(1694255927.350626) can1 613#5000500002955000
(1694255927.443746) can1 611#5000500050005000
(1694255927.450847) can1 612#0770076550005000
(1694255927.451292) can1 613#5000500050005000
(1694255927.543612) can1 611#5000500050005000
(1694255927.547083) can1 612#5000500050005000
(1694255927.550619) can1 613#5000500006005000
(1694255927.646012) can1 611#5000500050005000
(1694255927.647142) can1 612#1235065050005000
(1694255927.652653) can1 613#5000500050005000
(1694255927.743499) can1 611#5000500050005000
(1694255927.747167) can1 612#0795081050005000
(1694255927.757716) can1 613#5000500050001590
(1694255927.843497) can1 611#5000500050005000
(1694255927.847368) can1 612#0780086550005000
(1694255927.850426) can1 613#5000500003100560
(1694255927.943460) can1 611#5000500050005000
(1694255927.954133) can1 612#0605082050005000
(1694255927.954340) can1 613#5000500050005000
(1694255928.043392) can1 611#5000500050005000
(1694255928.046868) can1 612#5000068050005000
(1694255928.050391) can1 613#5000500050000685
(1694255928.147781) can1 611#5000500050005000
(1694255928.148146) can1 612#5000070050001280
(1694255928.150460) can1 613#5000500005601310
(1694255928.243620) can1 611#5000500050005000
(1694255928.247141) can1 612#1020064550005000
(1694255928.259011) can1 613#5000500002951005
(1694255928.346209) can1 611#5000500050005000
(1694255928.347238) can1 612#0815062050005000
(1694255928.351929) can1 613#5000500050005000
(1694255928.443599) can1 611#5000500050005000
(1694255928.447142) can1 612#0815083550005000
(1694255928.454884) can1 613#5000500050000880
(1694255928.543529) can1 611#5000500050005000
(1694255928.547019) can1 612#0730500050005000
(1694255928.550547) can1 613#5000500003350455
(1694255928.646565) can1 611#5000500050005000
(1694255928.647027) can1 612#5000084050005000
(1694255928.650615) can1 613#5000500008800415
(1694255928.743528) can1 611#5000500050005000
(1694255928.747214) can1 612#0970084550005000
(1694255928.759225) can1 613#5000500003350565
(1694255928.843731) can1 611#5000500050005000
(1694255928.848908) can1 612#5000061050005000
(1694255928.850487) can1 613#5000500003150740
(1694255928.945469) can1 611#5000500050005000
(1694255928.948920) can1 612#0525090550005000
(1694255928.952384) can1 613#5000500002950360
(1694255929.045371) can1 611#5000500050005000
(1694255929.048909) can1 612#0590064050005000
(1694255929.052374) can1 613#5000500007500565
(1694255929.148797) can1 611#5000500050005000
(1694255929.148999) can1 612#0620059050001310
(1694255929.154428) can1 613#5000089510000540
(1694255929.245294) can1 611#5000500050005000
(1694255929.248838) can1 612#0605050550005000
(1694255929.260671) can1 613#5000076050000495
(1694255929.348018) can1 611#5000500050005000
(1694255929.348832) can1 612#0600059050005000
(1694255929.353677) can1 613#5000500005700500
(1694255929.445240) can1 611#5000500050005000
(1694255929.448747) can1 612#0840085550005000
(1694255929.459090) can1 613#5000500004200845
(1694255929.545151) can1 611#5000500050005000
(1694255929.548614) can1 612#0875055050005000
(1694255929.552015) can1 613#5000500002904750
(1694255929.649289) can1 611#5000500050005000
(1694255929.649516) can1 612#5000103050005000
(1694255929.652101) can1 613#5000500005900905
(1694255929.745066) can1 611#5000500050005000
(1694255929.748752) can1 612#1180065550005000
(1694255929.760767) can1 613#5000500003105000
(1694255929.845136) can1 611#5000500050005000
(1694255929.850568) can1 612#5000068050005000
(1694255929.851936) can1 613#5000500003100990
(1694255929.944957) can1 611#5000500050005000
(1694255929.948455) can1 612#5000064550005000
(1694255929.952012) can1 613#5000500006151145
(1694255930.044888) can1 611#5000500050005000
(1694255930.048445) can1 612#5000056050005000
(1694255930.051945) can1 613#5000500050000995
(1694255930.150422) can1 611#5000500050005000
(1694255930.150677) can1 612#1040116050005000
(1694255930.151939) can1 613#5000092507155000
(1694255930.244879) can1 611#5000500050005000
(1694255930.248401) can1 612#5000058550005000
(1694255930.252011) can1 613#5000092050001050
(1694255930.349603) can1 611#5000500050005000
(1694255930.349833) can1 612#5000066050005000
(1694255930.351833) can1 613#5000500003005000
(1694255930.444646) can1 611#5000500050005000
(1694255930.448251) can1 612#0575089550005000
(1694255930.453400) can1 613#5000500003500675
(1694255930.545210) can1 611#5000500050005000
(1694255930.548176) can1 612#5000052550005000
(1694255930.551700) can1 613#5000500050000740
(1694255930.650846) can1 611#5000500050005000
(1694255930.651071) can1 612#5000044550005000
(1694255930.651679) can1 613#5000500050005000
(1694255930.744633) can1 611#5000500050005000
(1694255930.748113) can1 612#5000055050005000
(1694255930.751785) can1 613#5000500003050585
(1694255930.846544) can1 611#5000500050005000
(1694255930.848009) can1 612#0605051050005000
(1694255930.852233) can1 613#5000500002905000
(1694255930.944573) can1 611#5000500050005000
(1694255930.948140) can1 612#0695105050005000
(1694255930.951640) can1 613#5000500005200855
(1694255931.045869) can1 611#5000500050005000
(1694255931.047959) can1 612#5000045050005000
(1694255931.051496) can1 613#5000500005101160
(1694255931.152268) can1 611#5000500050005000
(1694255931.152511) can1 612#5000064050005000
(1694255931.152763) can1 613#5000500050001005
(1694255931.244646) can1 611#5000500012705000
(1694255931.247884) can1 612#5000064550005000
(1694255931.251525) can1 613#5000114513850560
(1694255931.350625) can1 611#5000500050005000
(1694255931.350854) can1 612#0790054550005000
(1694255931.351475) can1 613#5000500050000865
(1694255931.444341) can1 611#5000500012805000
(1694255931.447792) can1 612#5000500050005000
(1694255931.451431) can1 613#5000500008605000
(1694255931.547156) can1 611#5000500050005000
(1694255931.548430) can1 612#5000092550005000
(1694255931.551930) can1 613#5000115504651325
(1694255931.652535) can1 611#5000500050005000
(1694255931.652799) can1 612#5000076050005000
(1694255931.653041) can1 613#5000500010401020
(1694255931.744836) can1 611#5000500050005000
(1694255931.748337) can1 612#5000059550005000
(1694255931.751892) can1 613#5000500004951160
(1694255931.844869) can1 611#5000500012755000
(1694255931.849022) can1 612#5000051050005000
(1694255931.851861) can1 613#5000500004950290
(1694255931.944655) can1 611#5000500050005000
(1694255931.948346) can1 612#0585057550001230
(1694255931.952400) can1 613#5000500004950795
(1694255932.044716) can1 611#5000500050005000
(1694255932.048136) can1 612#5000101050001215
(1694255932.051667) can1 613#5000500009305000
(1694255932.145491) can1 611#5000500050005000
(1694255932.153682) can1 612#5000103550005000
(1694255932.153911) can1 613#5000500008601125
(1694255932.244684) can1 611#5000500050005000
(1694255932.248145) can1 612#0895500050005000
(1694255932.251617) can1 613#5000500009155000
(1694255932.352013) can1 611#5000500050005000
(1694255932.352417) can1 612#0600500050001190
(1694255932.352602) can1 613#5000500050001025
(1694255932.444513) can1 611#5000500050005000
(1694255932.448012) can1 612#0770100050001200
(1694255932.451737) can1 613#5000500005155000
(1694255932.544621) can1 611#5000500050005000
(1694255932.548010) can1 612#5000029050005000
(1694255932.551448) can1 613#5000500050001050
(1694255932.644447) can1 611#5000500050005000
(1694255932.654159) can1 612#5000044550005000
(1694255932.654373) can1 613#5000500005350290
(1694255932.744353) can1 611#5000500050005000
(1694255932.747825) can1 612#0840029050005000
(1694255932.751384) can1 613#5000500006450300
(1694255932.849687) can1 611#5000500050005000
(1694255932.849874) can1 612#5000058550005000
(1694255932.851879) can1 613#5000500006650690
(1694255932.944804) can1 611#5000500050005000
(1694255932.948254) can1 612#5000034050005000
(1694255932.957735) can1 613#5000500009151105
(1694255933.044859) can1 611#5000500050005000
(1694255933.049047) can1 612#1015033050005000
(1694255933.051727) can1 613#5000500004855000
(1694255933.144958) can1 611#5000500050005000
(1694255933.155064) can1 612#0580034550005000
(1694255933.155326) can1 613#5000500050000305
(1694255933.246568) can1 611#5000500050005000
(1694255933.252011) can1 612#0995051550005000
(1694255933.253530) can1 613#5000500008455000
(1694255933.346618) can1 611#5000500050005000
(1694255933.353798) can1 612#5000033050005000
(1694255933.354028) can1 613#5000500050000315
(1694255933.446496) can1 611#5000500050005000
(1694255933.449898) can1 612#0615070550005000
(1694255933.453457) can1 613#5000500050000900
(1694255933.547101) can1 611#5000500050005000
(1694255933.551306) can1 612#0775112050005000
(1694255933.554057) can1 613#5000129050000965
(1694255933.647657) can1 611#5000500050005000
(1694255933.655479) can1 612#0975032050005000
(1694255933.655762) can1 613#5000105550000295
(1694255933.746949) can1 611#5000500050005000
(1694255933.750450) can1 612#0865053550005000
(1694255933.753998) can1 613#5000500050000365
(1694255933.847169) can1 611#5000500050005000
(1694255933.850379) can1 612#5000057550005000
(1694255933.853991) can1 613#5000500005550405
(1694255933.946931) can1 611#5000500050005000
(1694255933.950594) can1 612#5000500050005000
(1694255933.962712) can1 613#5000111550000290
(1694255934.050546) can1 611#5000500050005000
(1694255934.052014) can1 612#0950103050005000
(1694255934.055597) can1 613#5000500050000320
(1694255934.156728) can1 611#5000500050005000
(1694255934.156956) can1 612#5000500050005000
(1694255934.157211) can1 613#5000500010500310
(1694255934.249319) can1 611#5000500050005000
(1694255934.251868) can1 612#1025039050005000
(1694255934.355049) can1 611#5000500050005000
(1694255934.355305) can1 612#0715035050005000
(1694255934.355538) can1 613#5000500006100305
(1694255934.448403) can1 611#5000500050005000
(1694255934.451896) can1 612#0840056550005000
(1694255934.455587) can1 613#5000087050000350
(1694255934.549640) can1 611#5000500050005000
(1694255934.551954) can1 612#5000029050005000
(1694255934.555310) can1 613#5000500010600300
(1694255934.657012) can1 611#5000500050005000
(1694255934.657210) can1 612#5000036550005000
(1694255934.657500) can1 613#5000500050000420
(1694255934.748225) can1 611#5000500050005000
(1694255934.751700) can1 612#5000029550005000
(1694255934.755262) can1 613#1240500050000290
(1694255934.848316) can1 611#5000500050005000
(1694255934.853649) can1 612#0680031550005000
(1694255934.855426) can1 613#5000500050000410
(1694255934.948192) can1 611#5000500050005000
(1694255934.951691) can1 612#0690044050005000
(1694255934.964010) can1 613#5000500050000290
(1694255935.048241) can1 611#5000500050005000
(1694255935.052458) can1 612#5000033550005000
(1694255935.055111) can1 613#5000500050000330
(1694255935.148116) can1 611#5000500050005000
(1694255935.154789) can1 612#5000033550005000
(1694255935.158719) can1 613#5000500050000290
(1694255935.248168) can1 611#5000500050005000
(1694255935.251510) can1 612#1270033050005000
(1694255935.255044) can1 613#5000500050000385
(1694255935.354842) can1 611#5000500050005000
(1694255935.356974) can1 612#5000029050005000
(1694255935.357244) can1 613#5000500050000305
(1694255935.448011) can1 611#5000500050005000
(1694255935.451475) can1 612#5000031550005000
(1694255935.455019) can1 613#5000500050000295
(1694255935.548547) can1 611#5000500050005000
(1694255935.553670) can1 612#5000031550005000
(1694255935.554901) can1 613#5000500050000310
(1694255935.648011) can1 611#5000500050005000
(1694255935.658605) can1 612#5000052050005000
(1694255935.658841) can1 613#5000500050000305
(1694255935.748261) can1 611#5000500050005000
(1694255935.751327) can1 612#1150038050005000
(1694255935.754840) can1 613#5000500006900290
(1694255935.855454) can1 611#5000500050005000
(1694255935.856011) can1 612#0625033050005000
(1694255935.856350) can1 613#5000500006300300
(1694255935.949140) can1 611#5000500050005000
(1694255935.952591) can1 612#0710029550005000
(1694255935.956317) can1 613#5000500050000395
(1694255936.050085) can1 611#5000500050005000
(1694255936.053751) can1 612#5000029550005000
(1694255936.056966) can1 613#5000500050000300
(1694255936.150030) can1 611#5000500050005000
(1694255936.153431) can1 612#5000041550005000
(1694255936.160619) can1 613#5000500006550290
(1694255936.252210) can1 611#5000500050005000
(1694255936.253866) can1 612#5000060050005000
(1694255936.257309) can1 613#5000500050000325
(1694255936.358128) can1 611#5000500050005000
(1694255936.358277) can1 612#0600034050005000
(1694255936.358552) can1 613#5000500012150290
(1694255936.450273) can1 611#5000500050005000
(1694255936.453831) can1 612#5000033550005000
(1694255936.457404) can1 613#5000500050000305
(1694255936.550347) can1 611#5000500050005000
(1694255936.553772) can1 612#5000033050005000
(1694255936.557236) can1 613#5000500050000385
(1694255936.650320) can1 611#5000500050005000
(1694255936.660161) can1 612#5000045550005000
(1694255936.660426) can1 613#5000500050000515
(1694255936.750178) can1 611#5000500050005000
(1694255936.753664) can1 612#5000031050005000
(1694255936.757245) can1 613#5000500050000355
(1694255936.850216) can1 611#5000500050005000
(1694255936.853594) can1 612#5000034550005000
(1694255936.857096) can1 613#5000500007400830
(1694255936.950288) can1 611#5000500050005000
(1694255936.953609) can1 612#5000067550005000
(1694255936.957191) can1 613#5000500050000315
(1694255937.050100) can1 611#5000500050005000
(1694255937.055535) can1 612#5000032050005000
(1694255937.057082) can1 613#5000500050000295
(1694255937.150269) can1 611#5000500050005000
(1694255937.161627) can1 612#5000048550005000
(1694255937.161859) can1 613#5000500050000305
(1694255937.250000) can1 611#5000500050005000
(1694255937.253928) can1 612#1220081550005000
(1694255937.256977) can1 613#5000500005350305
(1694255937.350147) can1 611#5000500050005000
(1694255937.360010) can1 612#5000030550005000
(1694255937.360272) can1 613#5000090550000355
(1694255937.449918) can1 611#5000500050005000
(1694255937.453428) can1 612#5000031550005000
(1694255937.456907) can1 613#5000500050000325
(1694255937.550299) can1 611#5000500050005000
(1694255937.553409) can1 612#5000072550005000
(1694255937.556797) can1 613#5000500050000325
(1694255937.650002) can1 611#5000500050005000
(1694255937.653756) can1 612#5000032550005000
(1694255937.656850) can1 613#5000095509250320
(1694255937.751886) can1 611#5000500050005000
(1694255937.753760) can1 612#5000032050005000
(1694255937.757325) can1 613#5000074506300290
(1694255937.854284) can1 611#5000500050005000
(1694255937.854645) can1 612#5000031050005000
(1694255937.858695) can1 613#5000500050000310
(1694255937.950362) can1 611#5000500050005000
(1694255937.953858) can1 612#1105034050005000
(1694255937.957394) can1 613#5000500006950310
(1694255938.051447) can1 611#5000500050005000
(1694255938.053845) can1 612#5000050550005000
(1694255938.057210) can1 613#5000500050000290
(1694255938.150225) can1 611#5000500050005000
(1694255938.153648) can1 612#5000091050005000
(1694255938.157201) can1 613#5000500050000290
(1694255938.250366) can1 611#5000500050005000
(1694255938.254919) can1 612#5000029050005000
(1694255938.257163) can1 613#5000500050000290
(1694255938.350386) can1 611#5000500050005000
(1694255938.353989) can1 612#5000099550005000
(1694255938.362156) can1 613#5000500050000425
(1694255938.450120) can1 611#5000500050005000
(1694255938.453659) can1 612#5000059050005000
(1694255938.457211) can1 613#5000500050000340
(1694255938.551977) can1 611#5000500050005000
(1694255938.553808) can1 612#0820096550005000
(1694255938.557659) can1 613#5000500007500290
(1694255938.650256) can1 611#5000500050005000
(1694255938.653701) can1 612#0595057550005000
(1694255938.657079) can1 613#5000500006000290
(1694255938.750786) can1 611#5000500050005000
(1694255938.754084) can1 612#0635500050005000
(1694255938.757553) can1 613#5000500005900295
(1694255938.859205) can1 611#5000500050005000
(1694255938.859402) can1 612#5000500050005000
(1694255938.859720) can1 613#5000129050000360
(1694255938.950567) can1 611#5000500050005000
(1694255938.954038) can1 612#1295500050005000
(1694255938.957598) can1 613#5000500005750295
(1694255939.052639) can1 611#5000500050005000
(1694255939.054096) can1 612#0695500050005000
(1694255939.058307) can1 613#5000500050000315
(1694255939.150487) can1 611#5000500050005000
(1694255939.157590) can1 613#5000500050000315
(1694255939.251276) can1 611#5000500050005000
(1694255939.256714) can1 612#5000500050005000
(1694255939.258220) can1 613#5000500007900305
(1694255939.351404) can1 611#5000500050005000
(1694255939.362979) can1 612#5000500050005000
(1694255939.363250) can1 613#5000500050000290
(1694255939.451153) can1 611#5000500050005000
(1694255939.454736) can1 612#5000101550005000
(1694255939.458143) can1 613#5000500050000850
(1694255939.553106) can1 611#5000500050005000
(1694255939.554757) can1 612#5000500050005000
(1694255939.558833) can1 613#5000500005800290
(1694255939.653138) can1 611#5000500050005000
(1694255939.656682) can1 612#0970079550005000
(1694255939.664888) can1 613#5000500050000845
(1694255939.755031) can1 611#5000500050005000
(1694255939.756421) can1 612#0735094550005000
(1694255939.759928) can1 613#5000500050005000
(1694255939.860228) can1 611#5000500050005000
(1694255939.860536) can1 612#5000049550005000
(1694255939.860690) can1 613#5000500050000325
(1694255939.953607) can1 611#5000500050005000
(1694255939.957163) can1 612#5000500050005000
(1694255939.960796) can1 613#5000500050000485
(1694255940.054408) can1 611#5000500050005000
(1694255940.057092) can1 612#0610052550005000
(1694255940.060569) can1 613#5000500008250300
(1694255940.153450) can1 611#5000500050005000
(1694255940.160155) can1 612#5000033550005000
(1694255940.160606) can1 613#5000500006505000
(1694255940.253449) can1 611#5000500050005000
(1694255940.258590) can1 612#0680032050005000
(1694255940.260449) can1 613#5000500010805000
(1694255940.353492) can1 611#5000500050005000
(1694255940.364625) can1 612#5000030550005000
(1694255940.364855) can1 613#5000500010350305
(1694255940.457703) can1 612#5000067050005000
(1694255940.460927) can1 613#5000500006255000
(1694255940.554799) can1 611#5000500050005000
(1694255940.557441) can1 612#5000032550005000
(1694255940.560799) can1 613#5000500050005000
(1694255940.654497) can1 611#5000500050005000
(1694255940.663919) can1 612#5000500050005000
(1694255940.666732) can1 613#5000500050005000
(1694255940.754272) can1 611#5000500050005000
(1694255940.758105) can1 612#5000053050005000
(1694255940.761098) can1 613#5000127550000290
(1694255940.861865) can1 611#5000500050005000
(1694255940.862096) can1 612#1300500050005000
(1694255940.862327) can1 613#5000500006455000
(1694255940.954100) can1 611#5000500050005000
(1694255940.957590) can1 612#5000056550005000
(1694255940.961303) can1 613#5000500006205000
(1694255941.056752) can1 611#5000500050005000
(1694255941.057683) can1 612#5000500050005000
(1694255941.062373) can1 613#5000500011105000
(1694255941.153973) can1 611#5000500050005000
(1694255941.157640) can1 612#1105054550005000
(1694255941.164727) can1 613#5000500007205000
(1694255941.254443) can1 611#5000500050005000
(1694255941.257595) can1 612#0895091550005000
(1694255941.260940) can1 613#5000500050001145
(1694255941.353912) can1 611#5000500050005000
(1694255941.358783) can1 612#0950076050005000
(1694255941.365537) can1 613#5000500050000705
(1694255941.453872) can1 611#5000500050005000
(1694255941.461213) can1 613#5000500050001045
(1694255941.556401) can1 611#5000500050005000
(1694255941.557439) can1 612#0740052550005000
(1694255941.562124) can1 613#5000500050000890
(1694255941.653819) can1 611#5000500050005000
(1694255941.657356) can1 612#5000047050005000
(1694255941.667944) can1 613#5000500008800650
(1694255941.753804) can1 611#5000500050005000
(1694255941.757310) can1 612#0945050550005000
(1694255941.760598) can1 613#5000500050000440
(1694255941.853620) can1 611#5000500050005000
(1694255941.863786) can1 612#5000051550005000
(1694255941.863992) can1 613#5000500050000755
(1694255941.953611) can1 611#5000500050005000
(1694255941.957113) can1 612#1185029050005000
(1694255941.960559) can1 613#5000500007650480
(1694255942.057692) can1 611#5000500050005000
(1694255942.057922) can1 612#0625051550005000
(1694255942.060553) can1 613#5000500002900470
(1694255942.153489) can1 611#5000500050005000
(1694255942.157120) can1 612#5000100050005000
(1694255942.169287) can1 613#5000500003050350
(1694255942.256374) can1 611#5000500050005000
(1694255942.256952) can1 612#0595053550005000
(1694255942.261996) can1 613#5000500006700515
(1694255942.354974) can1 611#5000500050005000
(1694255942.367359) can1 612#1030058050005000
(1694255942.367599) can1 613#5000500002900435
(1694255942.454792) can1 611#5000500050005000
(1694255942.458189) can1 612#1230046550005000
(1694255942.557903) can1 611#5000500050005000
(1694255942.560291) can1 612#0900067550005000
(1694255942.563721) can1 613#5000500003400840
(1694255942.656772) can1 611#5000500050005000
(1694255942.669425) can1 612#0675059050005000
(1694255942.669684) can1 613#5000500002950810
(1694255942.756778) can1 611#5000500050005000
(1694255942.760236) can1 612#5000068050005000
(1694255942.763683) can1 613#5000500003100805
(1694255942.859094) can1 611#5000500050005000
(1694255942.865134) can1 612#0600067050005000
(1694255942.865390) can1 613#5000500009305000
(1694255942.957682) can1 611#5000500050005000
(1694255942.961204) can1 612#1080054050005000
(1694255942.964815) can1 613#5000500005805000
(1694255943.057960) can1 611#5000500050005000
(1694255943.061302) can1 612#0705500050005000
(1694255943.065701) can1 613#5000500003300945
(1694255943.157804) can1 611#5000500050005000
(1694255943.161235) can1 612#0725044050005000
(1694255943.170867) can1 613#5000500002900990
(1694255943.258991) can1 611#5000500050005000
(1694255943.263430) can1 612#0710044550005000
(1694255943.265867) can1 613#5000500003505000
(1694255943.359008) can1 611#5000500050005000
(1694255943.369104) can1 612#0765500050005000
(1694255943.369336) can1 613#5000500003200985
(1694255943.458766) can1 611#5000500050005000
(1694255943.462286) can1 612#0575074050005000
(1694255943.559413) can1 611#5000500050005000
(1694255943.562256) can1 612#0755047050005000
(1694255943.565701) can1 613#5000500006250850
(1694255943.658853) can1 611#5000500050005000
(1694255943.671258) can1 612#0585059050005000
(1694255943.671523) can1 613#5000500006050905
(1694255943.758798) can1 611#5000500050005000
(1694255943.762257) can1 612#0605048550005000
(1694255943.765607) can1 613#5000500006455000
(1694255943.866522) can1 611#5000500050005000
(1694255943.866746) can1 612#5000084050005000
(1694255943.867086) can1 613#5000500050000835
(1694255943.958580) can1 611#5000500050005000
(1694255943.962114) can1 612#0555500050005000
(1694255943.965660) can1 613#5000500011205000
(1694255944.060440) can1 611#5000500050005000
(1694255944.062061) can1 612#0905500050005000
(1694255944.066169) can1 613#5000500003455000
(1694255944.158448) can1 611#5000500050005000
(1694255944.162165) can1 612#0660067550005000
(1694255944.172317) can1 613#5000500050000935
(1694255944.259672) can1 611#5000500050005000
(1694255944.261921) can1 612#0585056550005000
(1694255944.265394) can1 613#5000500006650525
(1694255944.358387) can1 611#5000500050005000
(1694255944.361956) can1 612#0815080050005000
(1694255944.365786) can1 613#5000500005251095
(1694255944.458289) can1 611#5000500050005000
(1694255944.461769) can1 612#0665500050005000
(1694255944.465239) can1 613#5000500003100640
(1694255944.561171) can1 611#5000500050005000
(1694255944.561740) can1 612#5000116550005000
(1694255944.566807) can1 613#5000500003250510
(1694255944.660196) can1 611#5000500050005000
(1694255944.664370) can1 612#1100057550005000
(1694255944.673031) can1 613#5000500003150730
(1694255944.760488) can1 611#5000500050005000
(1694255944.763556) can1 612#0680058550005000
(1694255944.766998) can1 613#5000500005900985
(1694255944.868446) can1 611#5000500050005000
(1694255944.868682) can1 612#0720055550005000
(1694255944.868928) can1 613#5000500003055000
(1694255944.959953) can1 611#5000500050005000
(1694255944.963456) can1 612#1045055050005000
(1694255944.967031) can1 613#5000500003101080
(1694255945.063467) can1 611#5000500050005000
(1694255945.063697) can1 612#0670054550005000
(1694255945.069189) can1 613#5000094003000990
(1694255945.159847) can1 611#5000500050005000
(1694255945.163557) can1 612#0585059050005000
(1694255945.174349) can1 613#5000500002900530
(1694255945.261059) can1 611#5000500050005000
(1694255945.263439) can1 612#0585060550005000
(1694255945.266859) can1 613#5000500002905000
(1694255945.359803) can1 611#5000500050005000
(1694255945.365554) can1 612#5000065050005000
(1694255945.372921) can1 613#5000500005450730
(1694255945.459793) can1 611#5000500050005000
(1694255945.463268) can1 612#0800069050005000
(1694255945.466699) can1 613#5000500003250765
(1694255945.562916) can1 611#5000500050005000
(1694255945.563400) can1 612#0675069550005000
(1694255945.568627) can1 613#5000500050001055
(1694255945.659686) can1 611#5000500050005000
(1694255945.663312) can1 612#5000070050005000
(1694255945.674896) can1 613#5000500050005000
(1694255945.759688) can1 611#5000500050005000
(1694255945.763089) can1 612#0615064050005000
(1694255945.766623) can1 613#5000500009955000
(1694255945.859670) can1 611#5000500050005000
(1694255945.870284) can1 612#0815079050005000
(1694255945.870568) can1 613#5000500050000760
(1694255945.959498) can1 611#5000500050005000
(1694255945.962951) can1 612#1025060550005000
(1694255945.966491) can1 613#5000500050000920
(1694255946.059591) can1 611#5000500050005000
(1694255946.063070) can1 612#0775064050005000
(1694255946.066485) can1 613#5000500050000880
(1694255946.159451) can1 611#5000500050005000
(1694255946.162923) can1 612#1065066550005000
(1694255946.175411) can1 613#5000500006351010
(1694255946.262744) can1 611#5000500050005000
(1694255946.262954) can1 612#5000500050005000
(1694255946.268443) can1 613#5000500050000920
(1694255946.359456) can1 611#5000500050005000
(1694255946.362957) can1 612#0635085050005000
(1694255946.366601) can1 613#5000500005251045
(1694255946.459359) can1 611#5000500050005000
(1694255946.462820) can1 612#5000063050005000
(1694255946.466365) can1 613#5000500050001135
(1694255946.564375) can1 611#5000500050005000
(1694255946.564634) can1 612#5000500050005000
(1694255946.566402) can1 613#5000500008801270
(1694255946.659285) can1 611#5000500050005000
(1694255946.662773) can1 612#0785057050005000
(1694255946.666345) can1 613#5000500003250605
(1694255946.759697) can1 611#5000500050005000
(1694255946.762814) can1 612#5000500050005000
(1694255946.766173) can1 613#5000500050000725
(1694255946.859455) can1 611#5000500050005000
(1694255946.871570) can1 612#0770100050005000
(1694255946.871826) can1 613#5000500050001465
(1694255946.960015) can1 611#5000500050005000
(1694255946.963644) can1 612#5000500050005000
(1694255946.967135) can1 613#5000500003700480
(1694255947.061286) can1 611#5000500050005000
(1694255947.066512) can1 612#0840500050005000
(1694255947.067094) can1 613#5000500011150590
(1694255947.160014) can1 611#5000500050005000
(1694255947.163552) can1 612#5000500050005000
(1694255947.167092) can1 613#5000500006001130
(1694255947.263827) can1 611#5000500050005000
(1694255947.264010) can1 612#5000081550005000
(1694255947.267093) can1 613#5000500050000400
(1694255947.359925) can1 611#5000500050005000
(1694255947.363536) can1 612#0635057050005000
(1694255947.375573) can1 613#5000500009400320
(1694255947.459883) can1 611#5000500050005000
(1694255947.463335) can1 612#0830500050005000
(1694255947.466905) can1 613#5000071050000460
(1694255947.565982) can1 611#5000500050005000
(1694255947.566214) can1 612#0770111550005000
(1694255947.567018) can1 613#5000500004800330
(1694255947.659784) can1 611#5000500050005000
(1694255947.663322) can1 612#5000500050005000
(1694255947.666844) can1 613#5000500005200725
(1694255947.761545) can1 611#5000500050005000
(1694255947.763369) can1 612#5000500050005000
(1694255947.767263) can1 613#5000500003050325
(1694255947.859710) can1 611#5000500050005000
(1694255947.863445) can1 612#0620091050005000
(1694255947.873277) can1 613#5000500003850340
(1694255947.960579) can1 611#5000500050005000
(1694255947.963802) can1 612#0305500050005000
(1694255947.967362) can1 613#5000500003850640
(1694255948.061246) can1 611#5000500050005000
(1694255948.066844) can1 612#5000048050005000
(1694255948.067440) can1 613#5000500004900710
(1694255948.160227) can1 611#5000500050005000
(1694255948.163699) can1 612#0475500050005000
(1694255948.167375) can1 613#5000500004450670
(1694255948.266019) can1 611#5000500050005000
(1694255948.266254) can1 612#0630500010905000
(1694255948.267281) can1 613#5000500003100410
(1694255948.363712) can1 612#0315500050005000
(1694255948.367336) can1 613#5000500002900450
(1694255948.461021) can1 611#5000500050005000
(1694255948.463649) can1 612#1075095550005000
(1694255948.467069) can1 613#5000500007350435
(1694255948.567721) can1 611#5000500050005000
(1694255948.567951) can1 612#0615081550005000
(1694255948.568182) can1 613#5000500003150530
(1694255948.659960) can1 611#5000500050005000
(1694255948.663466) can1 612#5000500050005000
(1694255948.667120) can1 613#5000500050000450
(1694255948.762976) can1 611#5000500050005000
(1694255948.763463) can1 612#5000500050005000
(1694255948.768646) can1 613#5000500006050310
(1694255948.859860) can1 611#5000500050005000
(1694255948.863360) can1 612#0875083050005000
(1694255948.874994) can1 613#5000500003450480
(1694255948.959903) can1 611#5000500050005000
(1694255948.963275) can1 612#0780057050005000
(1694255948.966780) can1 613#5000500003050290
(1694255949.068972) can1 611#5000500050005000
(1694255949.069180) can1 612#0725090050005000
(1694255949.069405) can1 613#5000500005600595
(1694255949.160952) can1 611#5000500050005000
(1694255949.163232) can1 612#5000066550005000
(1694255949.166724) can1 613#5000500003200330
(1694255949.259938) can1 611#5000500050005000
(1694255949.267271) can1 612#5000500050000875
(1694255949.267503) can1 613#5000500003850930
(1694255949.359665) can1 611#5000500050005000
(1694255949.367365) can1 613#5000069503150380
(1694255949.462245) can1 611#5000500050005000
(1694255949.463966) can1 612#5000500050005000
(1694255949.467495) can1 613#5000500004101660
(1694255949.563206) can1 611#5000500050005000
(1694255949.569296) can1 612#0995500050005000
(1694255949.569527) can1 613#5000500008400305
(1694255949.660337) can1 611#5000500050005000
(1694255949.663837) can1 612#0700078050005000
(1694255949.667380) can1 613#5000500004700290
(1694255949.764439) can1 611#5000500050005000
(1694255949.764669) can1 612#0600500050005000
(1694255949.767309) can1 613#5000500004750300
(1694255949.860319) can1 611#5000500050005000
(1694255949.863786) can1 612#0980066050005000
(1694255949.876240) can1 613#5000500006700295
(1694255949.960344) can1 611#5000500050005000
(1694255949.965002) can1 612#1220070050005000
(1694255949.967227) can1 613#5000500006150300
(1694255950.060351) can1 611#5000500050005000
(1694255950.070468) can1 612#0945068050005000
(1694255950.070677) can1 613#5000073005950290
(1694255950.162038) can1 611#5000500050005000
(1694255950.163582) can1 612#0955500050005000
(1694255950.167086) can1 613#5000500007250795
(1694255950.266393) can1 611#5000500050005000
(1694255950.268865) can1 612#5000500050005000
(1694255950.269039) can1 613#5000500008150305
(1694255950.360016) can1 611#5000500050005000
(1694255950.363537) can1 612#5000063007705000
(1694255950.366989) can1 613#5000085009500355
(1694255950.460014) can1 611#5000500050005000
(1694255950.464270) can1 612#0760500050005000
(1694255950.466912) can1 613#5000500004000350
(1694255950.560016) can1 611#5000500050005000
(1694255950.570873) can1 612#0915500050005000
(1694255950.571097) can1 613#5000500004701105
(1694255950.659886) can1 611#5000500050005000
(1694255950.766173) can1 611#5000500050005000
(1694255950.766431) can1 612#0620500050005000
(1694255950.766934) can1 613#5000138505600460
(1694255950.859735) can1 611#5000500050005000
(1694255950.863266) can1 612#0705500050005000
(1694255950.866742) can1 613#5000500009050475
(1694255950.959764) can1 611#5000500050005000
(1694255950.963176) can1 612#5000056050005000
(1694255950.966789) can1 613#5000500050000340
(1694255951.059712) can1 611#5000500050005000
(1694255951.071952) can1 612#0950105550005000
(1694255951.072149) can1 613#5000500050000290
(1694255951.159799) can1 611#5000500050005000
(1694255951.164286) can1 612#5000057050005000
(1694255951.166607) can1 613#5000500003050290
(1694255951.259681) can1 611#5000500050005000
(1694255951.263196) can1 612#0575057050005000
(1694255951.266720) can1 613#1260500008000305
(1694255951.359550) can1 611#5000500050005000
(1694255951.363032) can1 612#5000500050005000
(1694255951.366585) can1 613#5000500050000355
(1694255951.460626) can1 611#5000500050005000
(1694255951.463093) can1 612#5000500050005000
(1694255951.466447) can1 613#5000500003800475
(1694255951.560015) can1 611#5000500050005000
(1694255951.563480) can1 612#0795500050005000
(1694255951.572640) can1 613#5000500050000350
(1694255951.661472) can1 611#5000500050005000
(1694255951.663213) can1 612#5000500050005000
(1694255951.666752) can1 613#5000109506600435
(1694255951.767914) can1 611#5000500050005000
(1694255951.768154) can1 612#0630500050005000
(1694255951.768384) can1 613#5000500003250295
(1694255951.859715) can1 611#5000500050005000
(1694255951.863199) can1 612#0595500050005000
(1694255951.866667) can1 613#5000500007300470
(1694255951.959786) can1 611#5000500050005000
(1694255951.963307) can1 612#5000500050005000
(1694255951.966763) can1 613#5000500003700345
(1694255952.059562) can1 611#5000500050005000
(1694255952.063167) can1 612#5000500050005000
(1694255952.073488) can1 613#5000500003400335
(1694255952.160742) can1 611#5000500050005000
(1694255952.163582) can1 612#0740500050005000
(1694255952.167071) can1 613#5000500003150290
(1694255952.260443) can1 611#5000500050005000
(1694255952.264638) can1 612#0890500050005000
(1694255952.273117) can1 613#5000500007850980
(1694255952.360000) can1 611#5000500050005000
(1694255952.363511) can1 612#0700076050005000
(1694255952.367011) can1 613#5000500004400825
(1694255952.461951) can1 611#5000500050005000
(1694255952.463573) can1 612#1020500050005000
(1694255952.467635) can1 613#5000500007450500
(1694255952.559928) can1 611#5000500050005000
(1694255952.563626) can1 612#0620132050005000
(1694255952.574297) can1 613#5000500007050695
(1694255952.660009) can1 611#5000500050005000
(1694255952.663407) can1 612#1160500050005000
(1694255952.666979) can1 613#5000500004450310
(1694255952.769279) can1 611#5000500050005000
(1694255952.769511) can1 612#0580500050005000
(1694255952.769730) can1 613#5000500007950480
(1694255952.859834) can1 611#5000500050005000
(1694255952.863335) can1 612#0705061050005000
(1694255952.866903) can1 613#5000500050000500
(1694255952.963179) can1 611#5000500050005000
(1694255952.963406) can1 612#1120063050005000
(1694255952.968859) can1 613#5000500005550350
(1694255953.059766) can1 611#5000500050005000
(1694255953.063445) can1 612#0645500050005000
(1694255953.075291) can1 613#5000500006700860
(1694255953.161815) can1 611#5000500050005000
(1694255953.163249) can1 612#5000500050005000
(1694255953.167504) can1 613#5000500006900595
(1694255953.263313) can1 612#5000089550005000
(1694255953.273961) can1 613#5000500014800545
(1694255953.359669) can1 611#5000500050005000
(1694255953.363122) can1 612#0665500050005000
(1694255953.366605) can1 613#5000500050000845
(1694255953.463737) can1 611#5000500050005000
(1694255953.463969) can1 612#5000500050005000
(1694255953.466657) can1 613#5000500050000490
(1694255953.559603) can1 611#5000500050005000
(1694255953.563132) can1 612#0770084050005000
(1694255953.566584) can1 613#5000500050005000
(1694255953.659569) can1 611#5000500050005000
(1694255953.664641) can1 612#1010098050005000
(1694255953.666460) can1 613#5000500050005000
(1694255953.759642) can1 611#5000500050005000
(1694255953.771303) can1 612#5000091050005000
(1694255953.771542) can1 613#5000500050000895
(1694255953.859446) can1 611#5000500050005000
(1694255953.862944) can1 612#5000500050005000
(1694255953.866476) can1 613#5000500005555000
(1694255953.965081) can1 611#5000500050005000
(1694255953.965326) can1 612#0900500050005000
(1694255953.966558) can1 613#5000500050005000
(1694255954.059475) can1 611#5000500050005000
(1694255954.062916) can1 612#5000500050005000
(1694255954.066564) can1 613#5000500050000595
(1694255954.163477) can1 611#5000500050005000
(1694255954.163708) can1 612#5000083550005000
(1694255954.166551) can1 613#5000500050001155
(1694255954.259368) can1 611#5000500050005000
(1694255954.262811) can1 612#5000500050005000
(1694255954.266389) can1 613#5000500005655000
(1694255954.359344) can1 611#5000500050005000
(1694255954.362751) can1 612#0655059050005000
(1694255954.366330) can1 613#5000500050000895
(1694255954.465292) can1 611#5000500050005000
(1694255954.465506) can1 612#0945500050005000
(1694255954.466386) can1 613#5000500050005000
(1694255954.559172) can1 611#5000500050005000
(1694255954.562685) can1 612#0860054550005000
(1694255954.566268) can1 613#5000500050005000
(1694255954.660660) can1 611#5000500050005000
(1694255954.662669) can1 612#5000056550005000
(1694255954.666299) can1 613#5000500050005000
(1694255954.759162) can1 611#5000500050005000
(1694255954.762816) can1 612#5000065550005000
(1694255954.772652) can1 613#5000500050000615
(1694255954.861216) can1 611#5000500050005000
(1694255954.862538) can1 612#5000093050005000
(1694255954.866067) can1 613#5000500050000435
(1694255954.966499) can1 611#5000500050005000
(1694255954.966751) can1 612#5000084050005000
(1694255954.966964) can1 613#5000500003350640
(1694255955.059022) can1 611#5000500050005000
(1694255955.062541) can1 612#0635061050005000
(1694255955.066020) can1 613#5000500011400550
(1694255955.164834) can1 611#5000500050005000
(1694255955.165065) can1 612#0585082050005000
(1694255955.166117) can1 613#5000500011350530
(1694255955.258896) can1 611#5000500050005000
(1694255955.262341) can1 612#5000063550005000
(1694255955.265893) can1 613#5000500004900595
(1694255955.360185) can1 611#5000500050005000
(1694255955.362254) can1 612#5000049550005000
(1694255955.365804) can1 613#5000500050000575
(1694255955.465404) can1 611#5000500050005000
(1694255955.467144) can1 612#0935118050005000
(1694255955.467377) can1 613#5000500050000330
(1694255955.558701) can1 611#5000500050005000
(1694255955.562201) can1 612#0875115550001500
(1694255955.565780) can1 613#5000500002900500
(1694255955.662216) can1 611#5000500050005000
(1694255955.662508) can1 612#0650049050005000
(1694255955.667895) can1 613#5000500003300445
(1694255955.758595) can1 611#5000500050005000
(1694255955.762137) can1 612#0975067050005000
(1694255955.773982) can1 613#5000500010350345
(1694255955.858610) can1 611#5000500050005000
(1694255955.862193) can1 612#5000085550005000
(1694255955.865617) can1 613#5000500002950470
(1694255955.958629) can1 611#5000500050005000
(1694255955.968578) can1 612#0640061550005000
(1694255955.968754) can1 613#5000500005450455
(1694255956.060137) can1 611#5000500050005000
(1694255956.063115) can1 612#0660094550005000
(1694255956.066667) can1 613#5000500005901770
(1694255956.166416) can1 611#5000500050005000
(1694255956.166678) can1 612#5000068550005000
(1694255956.166888) can1 613#5000121506601500
(1694255956.259652) can1 611#5000500050005000
(1694255956.263046) can1 612#5000052550005000
(1694255956.266586) can1 613#5000500002905000
(1694255956.361130) can1 611#5000500050005000
(1694255956.362981) can1 612#5000048550005000
(1694255956.366512) can1 613#5000500006000970
(1694255956.468737) can1 611#5000500050005000
(1694255956.468935) can1 612#0955070050005000
(1694255956.469170) can1 613#5000500050005000
(1694255956.563665) can1 612#5000049050005000
(1694255956.566402) can1 613#5000500009300740
(1694255956.663766) can1 611#5000500050005000
(1694255956.664014) can1 612#0685093550005000
(1694255956.666457) can1 613#5000500003050805
(1694255956.759326) can1 611#5000500050005000
(1694255956.762813) can1 612#0815064050005000
(1694255956.775730) can1 613#5000500002901125
(1694255956.859665) can1 611#5000500050005000
(1694255956.865044) can1 612#0670065550005000
(1694255956.866211) can1 613#5000500003000510
(1694255956.959232) can1 611#5000500050005000
(1694255956.969855) can1 612#0610061050005000
(1694255956.970083) can1 613#5000500008550535
(1694255957.059350) can1 611#5000500050005000
(1694255957.062685) can1 612#5000047550005000
(1694255957.066205) can1 613#5000500007550790
(1694255957.159183) can1 611#5000500050005000
(1694255957.162746) can1 612#0755086550005000
(1694255957.166181) can1 613#5000500002900680
(1694255957.258978) can1 611#5000500050005000
(1694255957.262609) can1 612#5000500050005000
(1694255957.266069) can1 613#5000500007151285
(1694255957.359150) can1 611#5000500050005000
(1694255957.364001) can1 612#0770073550005000
(1694255957.365997) can1 613#5000500050005000
(1694255957.460010) can1 611#5000500050005000
(1694255957.470415) can1 612#0780058550005000
(1694255957.470646) can1 613#5000500050000920
(1694255957.560012) can1 611#5000500050005000
(1694255957.563451) can1 612#5000056050005000
(1694255957.568130) can1 613#5000500050005000
(1694255957.665503) can1 611#5000500050005000
(1694255957.665786) can1 612#0625057550005000
(1694255957.667007) can1 613#5000500050005000
(1694255957.759984) can1 611#5000500050005000
(1694255957.763434) can1 612#1165500050005000
(1694255957.766907) can1 613#5000500050000605
(1694255957.859987) can1 611#5000500050005000
(1694255957.863507) can1 612#0645049050005000
(1694255957.866967) can1 613#5000500050005000
(1694255957.959964) can1 611#5000500050005000
(1694255957.971299) can1 612#0975066050005000
(1694255957.971557) can1 613#5000500004955000
(1694255958.059912) can1 611#5000500050005000
(1694255958.063378) can1 612#5000044550005000
(1694255958.066872) can1 613#5000500050005000
(1694255958.159783) can1 611#5000500050005000
(1694255958.163356) can1 612#0645072550005000
(1694255958.166854) can1 613#5000500050000635
(1694255958.259720) can1 611#5000500050005000
(1694255958.263222) can1 612#5000082050005000
(1694255958.266749) can1 613#5000500050000545
(1694255958.359922) can1 611#5000500050005000
(1694255958.365392) can1 612#5000500050005000
(1694255958.366659) can1 613#5000500007150430
(1694255958.459693) can1 611#5000500050005000
(1694255958.463244) can1 612#5000076050005000
(1694255958.471969) can1 613#5000500007700585
(1694255958.560587) can1 611#5000500050005000
(1694255958.563004) can1 612#5000054050005000
(1694255958.667023) can1 611#5000500050005000
(1694255958.667247) can1 612#5000067550005000
(1694255958.667478) can1 613#5000500050000830
(1694255958.759424) can1 611#5000500050005000
(1694255958.762903) can1 612#5000500050005000
(1694255958.766610) can1 613#5000500050000310
(1694255958.859546) can1 611#5000500050005000
(1694255958.863036) can1 612#5000082050005000
(1694255958.866524) can1 613#5000500050000290
(1694255958.959301) can1 611#5000500050005000
(1694255958.962791) can1 612#5000035050005000
(1694255958.973205) can1 613#5000500050000290
(1694255959.059615) can1 611#5000500050005000
(1694255959.065060) can1 612#0810049050005000
(1694255959.066233) can1 613#5000500050000305
(1694255959.159430) can1 611#5000500050005000
(1694255959.162812) can1 612#1075066550005000
(1694255959.166506) can1 613#5000500050000295
(1694255959.259246) can1 611#5000500050005000
(1694255959.262712) can1 612#1020029050005000
(1694255959.266220) can1 613#5000500050000335
(1694255959.361533) can1 611#5000500050005000
(1694255959.362735) can1 612#0895034050005000
(1694255959.367199) can1 613#5000500050000340
(1694255959.459144) can1 611#5000500050005000
(1694255959.462758) can1 612#0770065050005000
(1694255959.473114) can1 613#5000500007100360
(1694255959.559276) can1 611#5000500050005000
(1694255959.562549) can1 612#5000064550005000
(1694255959.566045) can1 613#5000500009550370
(1694255959.659115) can1 611#5000500050005000
(1694255959.667417) can1 612#0870078550005000
(1694255959.669007) can1 613#5000500006950295
(1694255959.759054) can1 611#5000500050005000
(1694255959.762485) can1 612#5000119050005000
(1694255959.765994) can1 613#5000500050000300
(1694255959.861108) can1 611#5000500050005000
(1694255959.862504) can1 612#0730031550005000
(1694255959.866117) can1 613#5000500050000290
(1694255959.958850) can1 611#5000500050005000
(1694255959.962387) can1 612#0650029050005000
(1694255959.974456) can1 613#5000500050000300
(1694255960.060791) can1 611#5000500050005000
(1694255960.066183) can1 612#0775051550005000
(1694255960.067307) can1 613#5000500050000315
(1694255960.163780) can1 612#0660031050005000
(1694255960.168472) can1 613#5000500007000395
(1694255960.260311) can1 611#5000500050005000
(1694255960.263797) can1 612#5000038550005000
(1694255960.267291) can1 613#5000500050000290
(1694255960.362839) can1 611#5000500050005000
(1694255960.363840) can1 612#0905030050005000
(1694255960.368531) can1 613#5000500006650290
(1694255960.460237) can1 611#5000500050005000
(1694255960.463904) can1 612#5000031550005000
(1694255960.474756) can1 613#5000500050000300
(1694255960.564012) can1 611#5000500050005000
(1694255960.565772) can1 612#5000057050005000
(1694255960.569298) can1 613#5000500050001025
(1694255960.670236) can1 611#5000500050005000
(1694255960.670520) can1 612#1065032050005000
(1694255960.670720) can1 613#5000500050001180
(1694255960.763729) can1 611#5000500050005000
(1694255960.767280) can1 612#5000051550005000
(1694255960.770885) can1 613#5000500005550310
(1694255960.864366) can1 611#5000500050005000
(1694255960.867234) can1 612#5000082550005000
(1694255960.871190) can1 613#5000500005550305
(1694255960.963678) can1 611#5000500050005000
(1694255960.976215) can1 612#5000031550005000
(1694255960.976396) can1 613#5000500050000345
(1694255961.063611) can1 611#5000500050005000
(1694255961.068356) can1 612#1030062550005000
(1694255961.070558) can1 613#5000500050005000
(1694255961.163662) can1 611#5000500050005000
(1694255961.173247) can1 612#5000034050005000
(1694255961.176114) can1 613#5000500008800825
(1694255961.263492) can1 611#5000500050005000
(1694255961.266971) can1 612#0935053550005000
(1694255961.270544) can1 613#5000500050000760
(1694255961.364948) can1 611#5000500050005000
(1694255961.367116) can1 612#5000064050005000
(1694255961.370603) can1 613#5000500008350300
(1694255961.463521) can1 611#5000500050005000
(1694255961.467992) can1 612#5000030550005000
(1694255961.476475) can1 613#5000500005800350
(1694255961.565406) can1 611#5000500050005000
(1694255961.567395) can1 612#5000056050005000
(1694255961.570982) can1 613#5000500013751340
(1694255961.671737) can1 611#5000500050005000
(1694255961.672009) can1 612#0650064550005000
(1694255961.672308) can1 613#5000500005900320
(1694255961.763855) can1 611#5000500050005000
(1694255961.767368) can1 612#5000049550005000
(1694255961.770985) can1 613#5000500005650675
(1694255961.865819) can1 611#5000500050005000
(1694255961.867312) can1 612#5000030050005000
(1694255961.872013) can1 613#5000500050000290
(1694255961.963753) can1 611#5000500050005000
(1694255961.967257) can1 612#0715030050005000
(1694255961.977596) can1 613#5000500008400360
(1694255962.064011) can1 611#5000500050005000
(1694255962.069464) can1 612#1115032550005000
(1694255962.070718) can1 613#5000500005700290
(1694255962.164433) can1 611#5000500050005000
(1694255962.167183) can1 612#5000039050005000
(1694255962.171854) can1 613#5000500006800305
(1694255962.263613) can1 611#5000500050005000
(1694255962.267093) can1 612#0635050550005000
(1694255962.270623) can1 613#5000500011300370
(1694255962.366469) can1 611#5000500050005000
(1694255962.367050) can1 612#0890049050005000
(1694255962.372174) can1 613#5000136008755000
(1694255962.463548) can1 611#5000500050005000
(1694255962.467127) can1 612#0885070050005000
(1694255962.476016) can1 613#5000136050005000
(1694255962.563581) can1 611#5000500050005000
(1694255962.567052) can1 612#0900033550005000
(1694255962.570452) can1 613#5000500007850725
(1694255962.663608) can1 611#5000500050005000
(1694255962.673713) can1 612#0900030050005000
(1694255962.673991) can1 613#5000500006850630
(1694255962.763455) can1 611#5000500050005000
(1694255962.766849) can1 612#0900046550005000
(1694255962.770330) can1 613#5000500006900315
(1694255962.867638) can1 611#5000500050005000
(1694255962.867868) can1 612#5000082050005000
(1694255962.870305) can1 613#5000500005850320
(1694255962.963254) can1 611#5000500050005000
(1694255962.966881) can1 612#5000052550005000
(1694255962.979089) can1 613#5000500050000775
(1694255963.065762) can1 611#5000500050005000
(1694255963.066793) can1 612#5000064550005000
(1694255963.071431) can1 613#5000500010200790
(1694255963.166833) can1 612#1180030050005000
(1694255963.171118) can1 613#5000500005450810
(1694255963.263106) can1 611#5000500050005000
(1694255963.266614) can1 612#5000031550005000
(1694255963.270195) can1 613#5000500005600730
(1694255963.367963) can1 611#5000500050005000
(1694255963.368182) can1 612#5000029050005000
(1694255963.370171) can1 613#5000500005800765
(1694255963.463051) can1 611#5000500050005000
(1694255963.466516) can1 612#5000049050005000
(1694255963.470131) can1 613#5000500005702615
(1694255963.563318) can1 611#5000500050005000
(1694255963.568814) can1 612#5000029050005000
(1694255963.570038) can1 613#5000500005850305
(1694255963.664013) can1 611#5000500050005000
(1694255963.675193) can1 612#5000029050005000
(1694255963.675426) can1 613#5000500050005000
(1694255963.763972) can1 611#5000500050005000
(1694255963.767599) can1 612#5000061550005000
(1694255963.771056) can1 613#5000500050005000
(1694255963.869002) can1 611#5000500050005000
(1694255963.869261) can1 612#5000057550005000
(1694255963.871115) can1 613#5000500010555000
(1694255963.963926) can1 611#5000500050005000
(1694255963.967374) can1 612#5000075050005000
(1694255963.980259) can1 613#5000500004901145
(1694255964.067297) can1 611#5000500050005000
(1694255964.067556) can1 612#0685500050005000
(1694255964.072960) can1 613#5000500050005000
(1694255964.167485) can1 612#0985031550005000
(1694255964.171233) can1 613#5000500050005000
(1694255964.264308) can1 611#5000500050005000
(1694255964.267759) can1 612#5000054550005000
(1694255964.271348) can1 613#5000071050000900
(1694255964.369387) can1 611#5000500050005000
(1694255964.369594) can1 612#5000066550005000
(1694255964.371392) can1 613#5000500005150700
(1694255964.464292) can1 611#5000500050005000
(1694255964.467748) can1 612#5000050050005000
(1694255964.471356) can1 613#5000500009350905
(1694255964.564749) can1 611#5000500050005000
(1694255964.567824) can1 612#5000053550005000
(1694255964.571146) can1 613#5000500010900720
(1694255964.665670) can1 611#5000500050005000
(1694255964.671325) can1 612#0820058550005000
(1694255964.676794) can1 613#5000500050000305
(1694255964.765408) can1 611#5000500050005000
(1694255964.768882) can1 612#0740045050005000
(1694255964.772375) can1 613#5000500013300570
(1694255964.870555) can1 611#5000500050005000
(1694255964.870788) can1 612#0970063050005000
(1694255964.873424) can1 613#5000500050000475
(1694255964.966320) can1 611#5000500050005000
(1694255964.969927) can1 612#0920045550005000
(1694255964.982081) can1 613#5000500003050715
(1694255965.069506) can1 611#5000500050005000
(1694255965.069962) can1 612#0660066550005000
(1694255965.075191) can1 613#5000500050000685
(1694255965.166228) can1 611#5000500050005000
(1694255965.169877) can1 612#0860049550005000
(1694255965.173231) can1 613#5000500050000540
(1694255965.266182) can1 611#5000500050005000
(1694255965.269740) can1 612#5000078050005000
(1694255965.273294) can1 613#5000500050001070
(1694255965.370770) can1 611#5000500050005000
(1694255965.371000) can1 612#5000080550005000
(1694255965.373224) can1 613#5000113550005000
(1694255965.466188) can1 611#5000500050005000
(1694255965.469909) can1 612#5000500050005000
(1694255965.473318) can1 613#5000500011750460
(1694255965.566453) can1 611#5000500050005000
(1694255965.571895) can1 612#0930052050005000
(1694255965.573112) can1 613#5000500002900515
(1694255965.666361) can1 611#5000500050005000
(1694255965.677949) can1 612#5000500050005000
(1694255965.678191) can1 613#5000500003050300
(1694255965.766983) can1 611#5000500050005000
(1694255965.769570) can1 612#0675500050005000
(1694255965.773075) can1 613#5000500003050590
(1694255965.872018) can1 611#5000500050005000
(1694255965.872248) can1 612#1410055550005000
(1694255965.873037) can1 613#5000500008050475
(1694255965.965972) can1 611#5000500050005000
(1694255965.969450) can1 612#5000500050005000
(1694255965.973050) can1 613#5000500003100710
(1694255966.070523) can1 611#5000500050005000
(1694255966.070807) can1 612#0990133050005000
(1694255966.072961) can1 613#5000500011150320
(1694255966.165953) can1 611#5000500050005000
(1694255966.169475) can1 612#0825069050005000
(1694255966.178034) can1 613#5000500003100300
(1694255966.265989) can1 611#5000500050005000
(1694255966.269309) can1 612#1015060550005000
(1694255966.272924) can1 613#5000500002950510
(1694255966.372388) can1 611#5000500050005000
(1694255966.372619) can1 612#5000500050005000
(1694255966.372885) can1 613#5000500004300805
(1694255966.469500) can1 612#0945062050005000
(1694255966.472930) can1 613#5000103005850565
(1694255966.568012) can1 611#5000500050005000
(1694255966.569255) can1 612#5000070550005000
(1694255966.573737) can1 613#5000500050000840
(1694255966.665687) can1 611#5000500050005000
(1694255966.669368) can1 612#5000060050005000
(1694255966.679596) can1 613#5000500050000940
(1694255966.765806) can1 611#5000500050005000
(1694255966.769256) can1 612#1005078550005000
(1694255966.772609) can1 613#5000500050001680
(1694255966.873695) can1 611#5000500050005000
(1694255966.873960) can1 612#0905058050005000
(1694255966.874190) can1 613#5000500003750815
(1694255966.966127) can1 611#5000500050005000
(1694255966.968997) can1 612#5000105050005000
(1694255966.972651) can1 613#5000500003205000
(1694255967.065524) can1 611#5000500050005000
(1694255967.069042) can1 612#0690500050005000
(1694255967.073105) can1 613#5000500003200610
(1694255967.165512) can1 611#5000500050005000
(1694255967.169055) can1 612#5000054550005000
(1694255967.172647) can1 613#5000500005751290
(1694255967.267665) can1 611#5000500050005000
(1694255967.268956) can1 612#0535061050005000
(1694255967.272489) can1 613#5000500006100825
(1694255967.373911) can1 611#5000500050005000
(1694255967.374154) can1 612#5000059550005000
(1694255967.374386) can1 613#5000500005750495
(1694255967.465306) can1 611#5000500050005000
(1694255967.468850) can1 612#5000057050005000
(1694255967.472323) can1 613#5000500050001950
(1694255967.569581) can1 611#5000500050005000
(1694255967.569812) can1 612#5000500050005000
(1694255967.572460) can1 613#5000500003050340
(1694255967.665271) can1 611#5000500050005000
(1694255967.668826) can1 612#5000076550005000
(1694255967.681038) can1 613#5000500002950355
(1694255967.765347) can1 611#5000500050005000
(1694255967.768709) can1 612#5000062050005000
(1694255967.772174) can1 613#5000500002900315
(1694255967.865254) can1 611#5000500050005000
(1694255967.875132) can1 612#5000081550005000
(1694255967.875393) can1 613#5000500050000355
(1694255967.966778) can1 611#5000500050005000
(1694255967.968576) can1 612#0640088550005000
(1694255967.972169) can1 613#5000500006700355
(1694255968.065264) can1 611#5000500050005000
(1694255968.072116) can1 612#5000079050005000
(1694255968.075158) can1 613#5000500010650710
(1694255968.165071) can1 611#5000500050005000
(1694255968.168579) can1 612#5000500050005000
(1694255968.172116) can1 613#5000500050000300
(1694255968.265023) can1 611#5000500050005000
(1694255968.269454) can1 612#0655063550005000
(1694255968.271992) can1 613#5000500050000290
(1694255968.365158) can1 611#5000500050005000
(1694255968.375659) can1 612#5000087050005000
(1694255968.375926) can1 613#5000500050000315
(1694255968.464884) can1 611#5000500050005000
(1694255968.468339) can1 612#0750071050005000
(1694255968.471845) can1 613#5000500005650300
(1694255968.570996) can1 611#5000500050005000
(1694255968.571224) can1 612#5000066050005000
(1694255968.572010) can1 613#5000500050000295
(1694255968.664759) can1 611#5000500050005000
(1694255968.668268) can1 612#0605500050005000
(1694255968.671804) can1 613#5000500050000305
(1694255968.764839) can1 611#5000500050005000
(1694255968.768936) can1 612#5000066550005000
(1694255968.771784) can1 613#5000500050000320
(1694255968.864701) can1 611#5000500050005000
(1694255968.876535) can1 612#5000029050005000
(1694255968.876787) can1 613#5000500050000295
(1694255968.964622) can1 611#5000500050005000
(1694255968.968859) can1 612#0835102550005000
(1694255968.971649) can1 613#5000500007350340
(1694255969.064844) can1 611#5000500050005000
(1694255969.076408) can1 612#0680063550005000
(1694255969.076635) can1 613#5000500050000525
(1694255969.164576) can1 611#5000500050005000
(1694255969.168015) can1 612#0625031050005000
(1694255969.171629) can1 613#5000500050000290
(1694255969.265825) can1 611#5000500050005000
(1694255969.267999) can1 612#0860037550005000
(1694255969.271484) can1 613#5000500050000315
(1694255969.364383) can1 611#5000500050005000
(1694255969.368013) can1 612#0875030550005000
(1694255969.372656) can1 613#5000500050000290
(1694255969.466256) can1 611#5000500050005000
(1694255969.467891) can1 612#5000057050005000
(1694255969.471451) can1 613#5000500006000690
(1694255969.572647) can1 611#5000500050005000
(1694255969.572879) can1 612#5000049550005000
(1694255969.573126) can1 613#5000500050000335
(1694255969.664419) can1 611#5000500050005000
(1694255969.667899) can1 612#5000029050005000
(1694255969.671351) can1 613#5000500050000290
(1694255969.766647) can1 611#5000500050005000
(1694255969.767871) can1 612#0900032050005000
(1694255969.772320) can1 613#5000500050000300
(1694255969.864319) can1 611#5000500050005000
(1694255969.867714) can1 612#5000029550005000
(1694255969.878101) can1 613#5000500050000315
(1694255969.964931) can1 611#5000500050005000
(1694255969.967748) can1 612#5000068050005000
(1694255969.971178) can1 613#5000500050000315
(1694255970.067691) can1 612#5000059050005000
(1694255970.077798) can1 613#5000500050000310
(1694255970.164158) can1 611#5000500050005000
(1694255970.167674) can1 612#5000083050005000
(1694255970.171155) can1 613#5000500050000305
(1694255970.267330) can1 611#5000500050005000
(1694255970.267772) can1 612#1380056550005000
(1694255970.273010) can1 613#5000500050000290
(1694255970.364015) can1 611#5000500050005000
(1694255970.367705) can1 612#5000073050005000
(1694255970.375727) can1 613#5000500050000290
(1694255970.464181) can1 611#5000500050005000
(1694255970.467842) can1 612#5000063550005000
(1694255970.471020) can1 613#5000500050000320
(1694255970.564014) can1 611#5000500050005000
(1694255970.574421) can1 612#0900035050005000
(1694255970.574651) can1 613#5000500050000315
(1694255970.663891) can1 611#5000500050005000
(1694255970.667412) can1 612#5000032050005000
(1694255970.670965) can1 613#5000500006350305
(1694255970.768136) can1 611#5000500050005000
(1694255970.768393) can1 612#0970057050005000
(1694255970.773805) can1 613#5000500005250300
(1694255970.864837) can1 611#5000500050005000
(1694255970.868433) can1 612#1040054050005000
(1694255970.873734) can1 613#5000500005650320
(1694255970.966748) can1 611#5000500050005000
(1694255970.968347) can1 612#5000053050005000
(1694255970.972419) can1 613#5000500050000925
(1694255971.064782) can1 611#5000500050005000
(1694255971.068295) can1 612#5000041550005000
(1694255971.071735) can1 613#5000500050000290
(1694255971.164783) can1 611#5000500050005000
(1694255971.168232) can1 612#5000048550005000
(1694255971.171774) can1 613#5000500010800300
(1694255971.266803) can1 611#5000500050005000
(1694255971.269020) can1 612#5000098550005000
(1694255971.271843) can1 613#5000500050000315
(1694255971.365879) can1 611#5000500050005000
(1694255971.368838) can1 612#5000104050005000
(1694255971.372546) can1 613#5000500008500615
(1694255971.465228) can1 611#5000500050005000
(1694255971.469512) can1 612#0915500050005000
(1694255971.472013) can1 613#5000500005000295
(1694255971.565292) can1 611#5000500050005000
(1694255971.575914) can1 612#5000500050005000
(1694255971.576159) can1 613#5000500007000310
(1694255971.664995) can1 611#5000500050005000
(1694255971.668617) can1 612#0810065050005000
(1694255971.672120) can1 613#5000500006100290
(1694255971.769727) can1 611#5000500050005000
(1694255971.769950) can1 612#0575088550005000
(1694255971.772130) can1 613#5000500002900420
(1694255971.864994) can1 611#5000500050005000
(1694255971.868489) can1 612#5000058550005000
(1694255971.880955) can1 613#5000500003450315
(1694255971.965593) can1 611#5000500050005000
(1694255971.969079) can1 612#0565500050005000
(1694255971.974772) can1 613#5000500050000395
(1694255972.065391) can1 611#5000500050005000
(1694255972.069011) can1 612#0610077050005000
(1694255972.072655) can1 613#5000500003000295
(1694255972.165471) can1 611#5000500050005000
(1694255972.169025) can1 612#0700500050005000
(1694255972.172453) can1 613#5000500010400305
(1694255972.269080) can1 611#5000500050005000
(1694255972.270427) can1 612#0680500050005000
(1694255972.272485) can1 613#5000500003100335
(1694255972.365401) can1 611#5000500050005000
(1694255972.368878) can1 612#5000500050005000
(1694255972.372652) can1 613#5000500050000315
(1694255972.466455) can1 611#5000500050005000
(1694255972.471113) can1 612#5000500050005000
(1694255972.473284) can1 613#5000087550000295
(1694255972.566389) can1 611#5000500050005000
(1694255972.577491) can1 612#0600500050005000
(1694255972.577743) can1 613#5000500050000300
(1694255972.666254) can1 611#5000500050005000
(1694255972.669763) can1 612#5000060550005000
(1694255972.673238) can1 613#5000500005550290
(1694255972.771550) can1 611#5000500050005000
(1694255972.771737) can1 612#0945500050005000
(1694255972.773247) can1 613#5000500050000315
(1694255972.866106) can1 611#5000500050005000
(1694255972.869767) can1 612#5000500050005000
(1694255972.873359) can1 613#5000500005550375
(1694255972.970872) can1 611#5000500050005000
(1694255972.971127) can1 612#0680500050005000
(1694255972.973162) can1 613#5000500050000315
(1694255973.066074) can1 611#5000500050005000
(1694255973.069577) can1 612#5000500050005000
(1694255973.079010) can1 613#5000500014350360
(1694255973.166026) can1 611#5000500050005000
(1694255973.169512) can1 612#0680071050005000
(1694255973.173075) can1 613#5000500009950480
(1694255973.271963) can1 611#5000500050005000
(1694255973.272220) can1 612#5000500050005000
(1694255973.272989) can1 613#5000500050000310
(1694255973.365988) can1 611#5000500050005000
(1694255973.369432) can1 612#5000105050005000
(1694255973.373018) can1 613#5000500003850300
(1694255973.467760) can1 611#5000500050005000
(1694255973.472839) can1 612#5000081050005000
(1694255973.474700) can1 613#5000500003050330
(1694255973.567811) can1 611#5000500050005000
(1694255973.578852) can1 612#0900500050005000
(1694255973.579114) can1 613#5000500010450420
(1694255973.667753) can1 611#5000500050005000
(1694255973.671123) can1 612#0605052550005000
(1694255973.674622) can1 613#5000500050000295
(1694255973.773049) can1 611#5000500050005000
(1694255973.773297) can1 612#1030091050005000
(1694255973.774769) can1 613#5000500006900605
(1694255973.867559) can1 611#5000500050005000
(1694255973.870960) can1 612#5000056050005000
(1694255973.874504) can1 613#5000500003350335
(1694255973.972507) can1 611#5000500050005000
(1694255973.972709) can1 612#0645500050005000
(1694255973.974543) can1 613#5000500050000950
(1694255974.068429) can1 611#5000500050005000
(1694255974.071856) can1 612#0620500050005000
(1694255974.083224) can1 613#5000500005300330
(1694255974.168351) can1 611#5000500050005000
(1694255974.171856) can1 612#1025500050005000
(1694255974.175378) can1 613#5000500004700305
(1694255974.273539) can1 611#5000500050005000
(1694255974.273829) can1 612#5000500050005000
(1694255974.279216) can1 613#5000500009150300
(1694255974.370226) can1 611#5000500050005000
(1694255974.373765) can1 612#0680094550005000
(1694255974.384978) can1 613#5000500006350290
(1694255974.470268) can1 611#5000500050005000
(1694255974.474474) can1 612#1015500050005000
(1694255974.477113) can1 613#5000500007400335
(1694255974.570234) can1 611#5000500050005000
(1694255974.580591) can1 612#5000099550005000
(1694255974.580872) can1 613#5000500004950310
(1694255974.670060) can1 611#5000500050005000
(1694255974.673566) can1 612#0690500050005000
(1694255974.677027) can1 613#5000500050000450
(1694255974.774428) can1 611#5000500050005000
(1694255974.774659) can1 612#5000500050005000
(1694255974.777092) can1 613#5000500050000310
(1694255974.869959) can1 611#5000500050005000
(1694255974.873669) can1 612#5000500050005000
(1694255974.885905) can1 613#5000500003500345
(1694255974.971074) can1 611#5000500050005000
(1694255974.973408) can1 612#0790500050005000
(1694255974.976917) can1 613#5000500003500315
(1694255975.070026) can1 611#5000500050005000
(1694255975.073542) can1 612#5000500050005000
(1694255975.085013) can1 613#5000500003850310
(1694255975.170071) can1 611#5000500050005000
(1694255975.173516) can1 612#5000500050005000
(1694255975.177002) can1 613#5000500008650290
(1694255975.270416) can1 611#5000500050005000
(1694255975.273666) can1 612#5000500050005000
(1694255975.277393) can1 613#5000500006750745
(1694255975.370208) can1 611#5000500050005000
(1694255975.373863) can1 612#0665500050005000
(1694255975.378071) can1 613#5000500002900315
(1694255975.470514) can1 611#5000500050005000
(1694255975.473571) can1 612#0850500050005000
(1694255975.477097) can1 613#5000500008000525
(1694255975.570189) can1 611#5000500050005000
(1694255975.582023) can1 612#0785500050005000
(1694255975.582253) can1 613#5000500050001290
(1694255975.670114) can1 611#5000500050005000
(1694255975.673626) can1 612#5000500050005000
(1694255975.677091) can1 613#5000500009750395
(1694255975.776327) can1 611#5000500050005000
(1694255975.776531) can1 612#5000054550005000
(1694255975.777093) can1 613#5000500003150440
(1694255975.870048) can1 611#5000500050005000
(1694255975.873613) can1 612#0640099550005000
(1694255975.877033) can1 613#5000500003250365
(1694255975.974368) can1 611#5000500050005000
(1694255975.974624) can1 612#0785500050005000
(1694255975.977472) can1 613#5000500006700625
(1694255976.070517) can1 611#5000500050005000
(1694255976.073973) can1 612#5000075550005000
(1694255976.078082) can1 613#5000500011200345
(1694255976.170947) can1 611#5000500050005000
(1694255976.174473) can1 612#0690500050005000
(1694255976.177957) can1 613#5000500005900740
(1694255976.271107) can1 611#5000500050005000
(1694255976.274539) can1 612#0605500050005000
(1694255976.277998) can1 613#5000500004850465
(1694255976.370954) can1 611#5000500050005000
(1694255976.374458) can1 612#5000066050005000
(1694255976.377911) can1 613#5000500006150475
(1694255976.472136) can1 611#5000500050005000
(1694255976.474526) can1 612#0620500050005000
(1694255976.477814) can1 613#5000500006400430
(1694255976.570828) can1 611#5000500050005000
(1694255976.574298) can1 612#5000068550005000
(1694255976.577827) can1 613#5000500006100345
(1694255976.671386) can1 611#5000500050005000
(1694255976.674262) can1 612#5000500050005000
(1694255976.677763) can1 613#5000500005150310
(1694255976.777192) can1 611#5000500050005000
(1694255976.777446) can1 612#5000500050005000
(1694255976.777959) can1 613#5000500008150340
(1694255976.870678) can1 611#5000500050005000
(1694255976.874195) can1 612#0785500050005000
(1694255976.877768) can1 613#5000500050000510
(1694255976.976423) can1 611#5000500050005000
(1694255976.976655) can1 612#0575107050005000
(1694255976.979330) can1 613#5000500050000375
(1694255977.072209) can1 611#5000500050005000
(1694255977.075868) can1 612#0715500050005000
(1694255977.080014) can1 613#5000500008301465
(1694255977.172014) can1 611#5000500050005000
(1694255977.175561) can1 612#5000069550005000
(1694255977.179048) can1 613#5000500003200770
(1694255977.276785) can1 611#5000500050005000
(1694255977.277230) can1 612#5000500050005000
(1694255977.279077) can1 613#5000500050000290
(1694255977.372011) can1 611#5000500050005000
(1694255977.375469) can1 612#5000500050005000
(1694255977.379059) can1 613#5000500050000445
(1694255977.473680) can1 611#5000500050005000
(1694255977.475612) can1 612#5000122050005000
(1694255977.479281) can1 613#5000088050000865
(1694255977.572016) can1 611#5000500050005000
(1694255977.575682) can1 612#0635058050005000
(1694255977.579038) can1 613#5000500013005000
(1694255977.673128) can1 611#5000500050005000
(1694255977.675417) can1 612#0785071050005000
(1694255977.678916) can1 613#5000500050001780
(1694255977.779026) can1 611#5000500050005000
(1694255977.779268) can1 612#5000053550005000
(1694255977.779518) can1 613#5000500050005000
(1694255977.873004) can1 611#5000500050005000
(1694255977.875307) can1 612#5000064550005000
(1694255977.878866) can1 613#5000500006705000
(1694255977.972421) can1 611#5000500050005000
(1694255977.978295) can1 612#0585059550005000
(1694255977.978852) can1 613#5000500050000620
(1694255978.071872) can1 611#5000500050005000
(1694255978.075206) can1 612#5000500050005000
